
SetupTitle, Transfer(1)
PrimitiveTest, I/V Sweep
TestParameter, Context.MainFrame, B1500A
TestParameter, Channel.UnitType, SMU, SMU
TestParameter, Channel.Unit, SMU1:HR, SMU2:HR
TestParameter, Channel.IName, Igs, Ids
TestParameter, Channel.VName, Vgs, Vds
TestParameter, Channel.Mode, V, V
TestParameter, Channel.Func, VAR1, VAR2
TestParameter, Channel.Index, 
TestParameter, Channel.Time, 
TestParameter, Measurement.Port.Unit, SMU1:HR, SMU2:HR
TestParameter, Measurement.Port.SeriesResistor, NONE, NONE
TestParameter, Measurement.Port.Filter, ON, ON
TestParameter, Measurement.Port.OutputVoltageComparison, 0, 0
TestParameter, Measurement.Primary.Locus, Double
TestParameter, Measurement.Primary.Scale, LINEAR
TestParameter, Measurement.Primary.Start, -5
TestParameter, Measurement.Primary.Stop, 5
TestParameter, Measurement.Primary.Step, 0.05
TestParameter, Measurement.Primary.Compliance, 0.05
TestParameter, Measurement.Primary.PowerCompliance, 0
TestParameter, Measurement.Aborting.Condition, STOP AT ANY ABNORMAL
TestParameter, Measurement.PostOutput.Value, START
TestParameter, Measurement.PostOutput.Retention, OFF
TestParameter, Measurement.Secondary.Start, 0.01
TestParameter, Measurement.Secondary.Count, 2
TestParameter, Measurement.Secondary.Step, 0.02
TestParameter, Measurement.Secondary.Compliance, 0.05
TestParameter, Measurement.Secondary.PowerCompliance, 0
TestParameter, Measurement.Bias.Source, -5, 0.01
TestParameter, Measurement.Bias.Compliance, 0.05, 0.05
TestParameter, Measurement.Monitor.Unit, SMU2:HR, SMU1:HR
TestParameter, Measurement.Monitor.Adc, HR ADC, HR ADC
TestParameter, Measurement.Monitor.Measurement, Compliance Side, Compliance Side
TestParameter, Measurement.Monitor.RangingMode, LIMITED, LIMITED
TestParameter, Measurement.Monitor.RangeBoundary, 100pA, 1nA
TestParameter, Measurement.Monitor.RangeRating, BY FULL RANGE, BY FULL RANGE
TestParameter, Measurement.Monitor.RangeRatingCoeff, 50, 50
TestParameter, Measurement.Timing.Hold, 0
TestParameter, Measurement.Timing.Delay, 0
TestParameter, Measurement.Adc.HighSpeed.Mode, AUTO
TestParameter, Measurement.Adc.HighSpeed.Coeff, 1
TestParameter, Measurement.Adc.HighResolution.AutoZero, OFF
TestParameter, Measurement.Adc.HighResolution.Mode, AUTO
TestParameter, Measurement.Adc.HighResolution.Coeff, 6
TestParameter, Measurement.WaitTime.Source.Coeff, 1
TestParameter, Measurement.WaitTime.Source.Offset, 0
TestParameter, Measurement.WaitTime.Monitor.Coeff, 1
TestParameter, Measurement.WaitTime.Monitor.Offset, 0
TestParameter, Output.Graph.Enabled, true
TestParameter, Output.Graph.AutoScaling, false
TestParameter, Output.Graph.XAxis.Data, Vgs
TestParameter, Output.Graph.XAxis.Scale, Linear
TestParameter, Output.Graph.XAxis.Left, -10
TestParameter, Output.Graph.XAxis.Right, 10
TestParameter, Output.Graph.XAxis.RunTimeAutoScale, true
TestParameter, Output.Graph.YAxis.Data, Ids
TestParameter, Output.Graph.YAxis.Scale, Linear
TestParameter, Output.Graph.YAxis.Bottom, -0.001
TestParameter, Output.Graph.YAxis.Top, 0.001
TestParameter, Output.Graph.YAxis.Group, 
TestParameter, Output.Graph.YAxis.RunTimeAutoScale, true
TestParameter, AutoAnalysis.Interpolation, false
TestParameter, AutoAnalysis.Line1.Enabled, false
TestParameter, AutoAnalysis.Line1.Type, 1
TestParameter, AutoAnalysis.Line1.Fix, True
TestParameter, AutoAnalysis.Line1.YAxis, 0
TestParameter, AutoAnalysis.Line1.Point1.Type, 0
TestParameter, AutoAnalysis.Line1.Point1.XY.X, 
TestParameter, AutoAnalysis.Line1.Point1.XY.Y, 
TestParameter, AutoAnalysis.Line1.Point1.Data.Var, 
TestParameter, AutoAnalysis.Line1.Point1.Data.Condition, 
TestParameter, AutoAnalysis.Line1.Point1.Data.Start, false
TestParameter, AutoAnalysis.Line1.Point1.Data.StartVar, 
TestParameter, AutoAnalysis.Line1.Point1.Data.StartCondition, 
TestParameter, AutoAnalysis.Line1.Point2.Type, 0
TestParameter, AutoAnalysis.Line1.Point2.XY.X, 
TestParameter, AutoAnalysis.Line1.Point2.XY.Y, 
TestParameter, AutoAnalysis.Line1.Point2.Data.Var, 
TestParameter, AutoAnalysis.Line1.Point2.Data.Condition, 
TestParameter, AutoAnalysis.Line1.Point2.Data.Start, false
TestParameter, AutoAnalysis.Line1.Point2.Data.StartVar, 
TestParameter, AutoAnalysis.Line1.Point2.Data.StartCondition, 
TestParameter, AutoAnalysis.Line1.GradientExpr, 0
TestParameter, AutoAnalysis.Line2.Enabled, false
TestParameter, AutoAnalysis.Line2.Type, 1
TestParameter, AutoAnalysis.Line2.Fix, True
TestParameter, AutoAnalysis.Line2.YAxis, 0
TestParameter, AutoAnalysis.Line2.Point1.Type, 0
TestParameter, AutoAnalysis.Line2.Point1.XY.X, 
TestParameter, AutoAnalysis.Line2.Point1.XY.Y, 
TestParameter, AutoAnalysis.Line2.Point1.Data.Var, 
TestParameter, AutoAnalysis.Line2.Point1.Data.Condition, 
TestParameter, AutoAnalysis.Line2.Point1.Data.Start, false
TestParameter, AutoAnalysis.Line2.Point1.Data.StartVar, 
TestParameter, AutoAnalysis.Line2.Point1.Data.StartCondition, 
TestParameter, AutoAnalysis.Line2.Point2.Type, 0
TestParameter, AutoAnalysis.Line2.Point2.XY.X, 
TestParameter, AutoAnalysis.Line2.Point2.XY.Y, 
TestParameter, AutoAnalysis.Line2.Point2.Data.Var, 
TestParameter, AutoAnalysis.Line2.Point2.Data.Condition, 
TestParameter, AutoAnalysis.Line2.Point2.Data.Start, false
TestParameter, AutoAnalysis.Line2.Point2.Data.StartVar, 
TestParameter, AutoAnalysis.Line2.Point2.Data.StartCondition, 
TestParameter, AutoAnalysis.Line2.GradientExpr, 0
TestParameter, AutoAnalysis.Marker.Enabled, false
TestParameter, AutoAnalysis.Marker.Data.Var, 
TestParameter, AutoAnalysis.Marker.Data.Condition, 
TestParameter, AutoAnalysis.Marker.Data.Start, false
TestParameter, AutoAnalysis.Marker.Data.StartVar, 
TestParameter, AutoAnalysis.Marker.Data.StartCondition, 
MetaData, TestRecord.EntryPoint, true
MetaData, TestRecord.RecordTime, 07/21/2020 18:35:57
MetaData, TestRecord.TestTarget, 0303d69
MetaData, TestRecord.IterationIndex, 11
MetaData, TestRecord.Preservation, true
MetaData, TestRecord.Flag, 
MetaData, TestRecord.Remarks, 
MetaData, TestRecord.LinkKey, 1402f10c-0cbb-44cc-8846-d87cd7141ee9
Dimension1, 402, 402
Dimension2, 2, 2
DataName, Vgs, Ids
DataValue, -5, 2.81792E-11
DataValue, -4.95, 2.92138E-11
DataValue, -4.9, 3.24442E-11
DataValue, -4.8500000000000005, 3.32262E-11
DataValue, -4.8, 3.49286E-11
DataValue, -4.75, 3.6184799999999997E-11
DataValue, -4.7, 3.90988E-11
DataValue, -4.65, 4.03462E-11
DataValue, -4.6000000000000005, 4.25336E-11
DataValue, -4.55, 4.79874E-11
DataValue, -4.5, 5.24462E-11
DataValue, -4.45, 5.73446E-11
DataValue, -4.4, 6.45892E-11
DataValue, -4.3500000000000005, 6.5795E-11
DataValue, -4.3, 7.32258E-11
DataValue, -4.25, 8.30454E-11
DataValue, -4.2, 8.6974399999999992E-11
DataValue, -4.15, 9.33256E-11
DataValue, -4.1, 1.0222699999999999E-10
DataValue, -4.05, 1.1902000000000002E-10
DataValue, -4, 1.2761E-10
DataValue, -3.95, 1.2099000000000001E-10
DataValue, -3.9, 1.5564000000000002E-10
DataValue, -3.85, 1.7206000000000002E-10
DataValue, -3.8000000000000003, 1.6543000000000002E-10
DataValue, -3.75, 2.2068E-10
DataValue, -3.7, 2.4038E-10
DataValue, -3.65, 2.6413E-10
DataValue, -3.6, 3.0389E-10
DataValue, -3.5500000000000003, 3.3769000000000005E-10
DataValue, -3.5, 3.5526E-10
DataValue, -3.45, 3.9373000000000005E-10
DataValue, -3.4, 4.3080000000000005E-10
DataValue, -3.35, 5.0438000000000007E-10
DataValue, -3.3000000000000003, 5.2385E-10
DataValue, -3.25, 6.3197E-10
DataValue, -3.2, 6.8928E-10
DataValue, -3.15, 6.9866E-10
DataValue, -3.1, 7.5630000000000007E-10
DataValue, -3.0500000000000003, 8.1684E-10
DataValue, -3, 7.7153E-10
DataValue, -2.95, 8.0064E-10
DataValue, -2.9, 8.944800000000001E-10
DataValue, -2.85, 1.01706E-09
DataValue, -2.8000000000000003, 9.777E-10
DataValue, -2.75, 1.13E-09
DataValue, -2.7, 1.2628E-09
DataValue, -2.65, 1.3281E-09
DataValue, -2.6, 1.4084E-09
DataValue, -2.5500000000000003, 1.4821E-09
DataValue, -2.5, 1.833E-09
DataValue, -2.45, 1.881E-09
DataValue, -2.4, 2.176E-09
DataValue, -2.35, 2.2537E-09
DataValue, -2.3000000000000003, 2.9604E-09
DataValue, -2.25, 3.1954E-09
DataValue, -2.2, 3.3829E-09
DataValue, -2.15, 3.8195E-09
DataValue, -2.1, 4.5927E-09
DataValue, -2.05, 4.712E-09
DataValue, -2, 5.1835E-09
DataValue, -1.95, 5.4461E-09
DataValue, -1.9000000000000001, 6.6302E-09
DataValue, -1.85, 7.3394E-09
DataValue, -1.8, 8.5509E-09
DataValue, -1.75, 9.1937E-09
DataValue, -1.7, 1.01289E-08
DataValue, -1.6500000000000001, 1.0658E-08
DataValue, -1.6, 1.14757E-08
DataValue, -1.55, 1.1797599999999999E-08
DataValue, -1.5, 1.222E-08
DataValue, -1.45, 1.3048399999999999E-08
DataValue, -1.4000000000000001, 1.4500199999999998E-08
DataValue, -1.35, 1.5716199999999997E-08
DataValue, -1.3, 1.68598E-08
DataValue, -1.25, 1.74766E-08
DataValue, -1.2, 1.7919999999999998E-08
DataValue, -1.1500000000000001, 1.9504199999999998E-08
DataValue, -1.1, 2.0428399999999998E-08
DataValue, -1.05, 2.1478199999999996E-08
DataValue, -1, 2.26332E-08
DataValue, -0.95000000000000007, 2.3652999999999997E-08
DataValue, -0.9, 2.53322E-08
DataValue, -0.85, 2.6407199999999997E-08
DataValue, -0.8, 2.7207599999999996E-08
DataValue, -0.75, 2.7893599999999996E-08
DataValue, -0.70000000000000007, 2.9449799999999998E-08
DataValue, -0.65, 3.0910599999999996E-08
DataValue, -0.6, 3.20916E-08
DataValue, -0.55, 3.33424E-08
DataValue, -0.5, 3.3927599999999996E-08
DataValue, -0.45, 3.5447999999999994E-08
DataValue, -0.4, 3.68054E-08
DataValue, -0.35000000000000003, 3.7542999999999994E-08
DataValue, -0.3, 3.8814399999999995E-08
DataValue, -0.25, 3.9572999999999993E-08
DataValue, -0.2, 4.0586199999999995E-08
DataValue, -0.15, 4.1409E-08
DataValue, -0.1, 4.31152E-08
DataValue, -0.05, 4.4367599999999996E-08
DataValue, 0, 4.55558E-08
DataValue, 0.05, 4.6030799999999993E-08
DataValue, 0.1, 4.7513199999999994E-08
DataValue, 0.15, 4.8863199999999996E-08
DataValue, 0.2, 4.96844E-08
DataValue, 0.25, 5.0719399999999994E-08
DataValue, 0.3, 5.1942199999999994E-08
DataValue, 0.35000000000000003, 5.2815399999999995E-08
DataValue, 0.4, 5.3699399999999992E-08
DataValue, 0.45, 5.4610999999999992E-08
DataValue, 0.5, 5.5683599999999996E-08
DataValue, 0.55, 5.6519199999999996E-08
DataValue, 0.6, 5.7641999999999994E-08
DataValue, 0.65, 5.8691999999999994E-08
DataValue, 0.70000000000000007, 5.9839799999999988E-08
DataValue, 0.75, 6.08192E-08
DataValue, 0.8, 6.1603E-08
DataValue, 0.85, 6.2454799999999988E-08
DataValue, 0.9, 6.3458399999999993E-08
DataValue, 0.95000000000000007, 6.42466E-08
DataValue, 1, 6.53512E-08
DataValue, 1.05, 6.58086E-08
DataValue, 1.1, 6.69396E-08
DataValue, 1.1500000000000001, 6.82724E-08
DataValue, 1.2, 6.9214599999999993E-08
DataValue, 1.25, 6.9935799999999988E-08
DataValue, 1.3, 7.05812E-08
DataValue, 1.35, 7.1247999999999991E-08
DataValue, 1.4000000000000001, 7.17682E-08
DataValue, 1.45, 7.2914999999999988E-08
DataValue, 1.5, 7.3570999999999991E-08
DataValue, 1.55, 7.45012E-08
DataValue, 1.6, 7.55668E-08
DataValue, 1.6500000000000001, 7.66406E-08
DataValue, 1.7, 7.7297399999999989E-08
DataValue, 1.75, 7.84768E-08
DataValue, 1.8, 7.9065799999999991E-08
DataValue, 1.85, 8.02334E-08
DataValue, 1.9000000000000001, 8.0715199999999989E-08
DataValue, 1.95, 8.11432E-08
DataValue, 2, 8.1882199999999989E-08
DataValue, 2.05, 8.3146799999999986E-08
DataValue, 2.1, 8.3705399999999989E-08
DataValue, 2.15, 8.4955599999999988E-08
DataValue, 2.2, 8.58574E-08
DataValue, 2.25, 8.6573999999999992E-08
DataValue, 2.3000000000000003, 8.7453E-08
DataValue, 2.35, 8.8674999999999992E-08
DataValue, 2.4, 8.9329599999999985E-08
DataValue, 2.45, 9.01882E-08
DataValue, 2.5, 9.1265399999999986E-08
DataValue, 2.5500000000000003, 9.17196E-08
DataValue, 2.6, 9.2398999999999992E-08
DataValue, 2.65, 9.3318799999999993E-08
DataValue, 2.7, 9.3920799999999987E-08
DataValue, 2.75, 9.4542799999999991E-08
DataValue, 2.8000000000000003, 9.531499999999999E-08
DataValue, 2.85, 9.5982399999999987E-08
DataValue, 2.9, 9.6964599999999987E-08
DataValue, 2.95, 9.7549599999999988E-08
DataValue, 3, 9.8547799999999993E-08
DataValue, 3.0500000000000003, 9.8923999999999993E-08
DataValue, 3.1, 9.98054E-08
DataValue, 3.15, 1.0048259999999999E-07
DataValue, 3.2, 1.0107119999999999E-07
DataValue, 3.25, 1.021186E-07
DataValue, 3.3000000000000003, 1.023098E-07
DataValue, 3.35, 1.0325419999999999E-07
DataValue, 3.4, 1.0408119999999999E-07
DataValue, 3.45, 1.044592E-07
DataValue, 3.5, 1.0485119999999999E-07
DataValue, 3.5500000000000003, 1.0569519999999999E-07
DataValue, 3.6, 1.0664899999999999E-07
DataValue, 3.65, 1.073312E-07
DataValue, 3.7, 1.082936E-07
DataValue, 3.75, 1.0896679999999999E-07
DataValue, 3.8000000000000003, 1.0924779999999999E-07
DataValue, 3.85, 1.098106E-07
DataValue, 3.9, 1.1023079999999999E-07
DataValue, 3.95, 1.10842E-07
DataValue, 4, 1.1174179999999999E-07
DataValue, 4.05, 1.1181379999999999E-07
DataValue, 4.1, 1.1232539999999999E-07
DataValue, 4.15, 1.1272459999999999E-07
DataValue, 4.2, 1.13411E-07
DataValue, 4.25, 1.1392979999999999E-07
DataValue, 4.3, 1.143036E-07
DataValue, 4.3500000000000005, 1.1467079999999998E-07
DataValue, 4.4, 1.1532E-07
DataValue, 4.45, 1.1571999999999999E-07
DataValue, 4.5, 1.1654E-07
DataValue, 4.55, 1.166E-07
DataValue, 4.6000000000000005, 1.1739999999999999E-07
DataValue, 4.65, 1.1812E-07
DataValue, 4.7, 1.1822E-07
DataValue, 4.75, 1.1912E-07
DataValue, 4.8, 1.1986E-07
DataValue, 4.8500000000000005, 1.201E-07
DataValue, 4.9, 1.2094E-07
DataValue, 4.95, 1.2106E-07
DataValue, 5, 1.2183999999999999E-07
DataValue, 5, 1.214E-07
DataValue, 4.95, 1.2134E-07
DataValue, 4.9, 1.2092E-07
DataValue, 4.8500000000000005, 1.1966E-07
DataValue, 4.8, 1.1958E-07
DataValue, 4.75, 1.1966E-07
DataValue, 4.7, 1.1942E-07
DataValue, 4.65, 1.1836E-07
DataValue, 4.6000000000000005, 1.1762E-07
DataValue, 4.55, 1.1704E-07
DataValue, 4.5, 1.1648E-07
DataValue, 4.45, 1.1606E-07
DataValue, 4.4, 1.1599999999999999E-07
DataValue, 4.3500000000000005, 1.159E-07
DataValue, 4.3, 1.1509999999999999E-07
DataValue, 4.25, 1.1453999999999999E-07
DataValue, 4.2, 1.1313999999999999E-07
DataValue, 4.15, 1.1278E-07
DataValue, 4.1, 1.1167999999999999E-07
DataValue, 4.05, 1.1128E-07
DataValue, 4, 1.106E-07
DataValue, 3.95, 1.102E-07
DataValue, 3.9, 1.0956E-07
DataValue, 3.85, 1.0848E-07
DataValue, 3.8000000000000003, 1.081E-07
DataValue, 3.75, 1.0748E-07
DataValue, 3.7, 1.0678E-07
DataValue, 3.65, 1.0615999999999999E-07
DataValue, 3.6, 1.0548E-07
DataValue, 3.5500000000000003, 1.0466E-07
DataValue, 3.5, 1.044E-07
DataValue, 3.45, 1.0384E-07
DataValue, 3.4, 1.0276E-07
DataValue, 3.35, 1.0236E-07
DataValue, 3.3000000000000003, 1.0152E-07
DataValue, 3.25, 1.0066E-07
DataValue, 3.2, 1.0024E-07
DataValue, 3.15, 1.0002259999999999E-07
DataValue, 3.1, 9.9064399999999988E-08
DataValue, 3.0500000000000003, 9.84032E-08
DataValue, 3, 9.763479999999999E-08
DataValue, 2.95, 9.6852999999999987E-08
DataValue, 2.9, 9.62726E-08
DataValue, 2.85, 9.52556E-08
DataValue, 2.8000000000000003, 9.473099999999999E-08
DataValue, 2.75, 9.42788E-08
DataValue, 2.7, 9.3638E-08
DataValue, 2.65, 9.3150799999999987E-08
DataValue, 2.6, 9.22094E-08
DataValue, 2.5500000000000003, 9.1344199999999985E-08
DataValue, 2.5, 9.02354E-08
DataValue, 2.45, 8.9393599999999991E-08
DataValue, 2.4, 8.8842599999999988E-08
DataValue, 2.35, 8.7821199999999987E-08
DataValue, 2.3000000000000003, 8.6841999999999991E-08
DataValue, 2.25, 8.62214E-08
DataValue, 2.2, 8.55542E-08
DataValue, 2.15, 8.4262199999999988E-08
DataValue, 2.1, 8.40262E-08
DataValue, 2.05, 8.3003999999999993E-08
DataValue, 2, 8.1776199999999988E-08
DataValue, 1.95, 8.08942E-08
DataValue, 1.9000000000000001, 7.9995799999999986E-08
DataValue, 1.85, 7.90162E-08
DataValue, 1.8, 7.7990799999999989E-08
DataValue, 1.75, 7.683359999999999E-08
DataValue, 1.7, 7.67268E-08
DataValue, 1.6500000000000001, 7.60852E-08
DataValue, 1.6, 7.5167799999999991E-08
DataValue, 1.55, 7.4149799999999988E-08
DataValue, 1.5, 7.329439999999999E-08
DataValue, 1.45, 7.2136199999999989E-08
DataValue, 1.4000000000000001, 7.14632E-08
DataValue, 1.35, 7.01142E-08
DataValue, 1.3, 6.9386399999999992E-08
DataValue, 1.25, 6.8346199999999993E-08
DataValue, 1.2, 6.7582199999999987E-08
DataValue, 1.1500000000000001, 6.67624E-08
DataValue, 1.1, 6.55232E-08
DataValue, 1.05, 6.42792E-08
DataValue, 1, 6.3267199999999991E-08
DataValue, 0.95000000000000007, 6.22134E-08
DataValue, 0.9, 6.11232E-08
DataValue, 0.85, 5.9970799999999991E-08
DataValue, 0.8, 5.8881399999999991E-08
DataValue, 0.75, 5.7820999999999992E-08
DataValue, 0.70000000000000007, 5.7048199999999993E-08
DataValue, 0.65, 5.5752999999999996E-08
DataValue, 0.6, 5.4651199999999995E-08
DataValue, 0.55, 5.36142E-08
DataValue, 0.5, 5.2405399999999994E-08
DataValue, 0.45, 5.1000999999999995E-08
DataValue, 0.4, 4.9872999999999993E-08
DataValue, 0.35000000000000003, 4.8771999999999995E-08
DataValue, 0.3, 4.7065399999999993E-08
DataValue, 0.25, 4.5777599999999993E-08
DataValue, 0.2, 4.44538E-08
DataValue, 0.15, 4.3022999999999994E-08
DataValue, 0.1, 4.1807399999999994E-08
DataValue, 0.05, 4.03306E-08
DataValue, 0, 3.9205E-08
DataValue, -0.05, 3.7668199999999994E-08
DataValue, -0.1, 3.5904599999999994E-08
DataValue, -0.15, 3.4817999999999995E-08
DataValue, -0.2, 3.3276999999999994E-08
DataValue, -0.25, 3.1795999999999996E-08
DataValue, -0.3, 3.06856E-08
DataValue, -0.35000000000000003, 2.9255599999999996E-08
DataValue, -0.4, 2.7418399999999996E-08
DataValue, -0.45, 2.6666399999999997E-08
DataValue, -0.5, 2.43364E-08
DataValue, -0.55, 2.3209199999999997E-08
DataValue, -0.6, 2.2481399999999996E-08
DataValue, -0.65, 2.08784E-08
DataValue, -0.70000000000000007, 1.92236E-08
DataValue, -0.75, 1.77142E-08
DataValue, -0.8, 1.63682E-08
DataValue, -0.85, 1.51952E-08
DataValue, -0.9, 1.34324E-08
DataValue, -0.95000000000000007, 1.1888399999999999E-08
DataValue, -1, 1.0086799999999999E-08
DataValue, -1.05, 8.2773E-09
DataValue, -1.1, 8.3696E-09
DataValue, -1.1500000000000001, 7.7549E-09
DataValue, -1.2, 7.3393E-09
DataValue, -1.25, 6.4111E-09
DataValue, -1.3, 4.8298E-09
DataValue, -1.35, 4.2137E-09
DataValue, -1.4000000000000001, 3.7509E-09
DataValue, -1.45, 3.1889E-09
DataValue, -1.5, 2.924E-09
DataValue, -1.55, 2.467E-09
DataValue, -1.6, 2.3927E-09
DataValue, -1.6500000000000001, 1.9269E-09
DataValue, -1.7, 1.7985E-09
DataValue, -1.75, 1.5536E-09
DataValue, -1.8, 1.3887E-09
DataValue, -1.85, 1.229E-09
DataValue, -1.9000000000000001, 1.1726E-09
DataValue, -1.95, 1.1093E-09
DataValue, -2, 9.941E-10
DataValue, -2.05, 7.3195E-10
DataValue, -2.1, 6.6876000000000008E-10
DataValue, -2.15, 6.2695000000000009E-10
DataValue, -2.2, 5.398E-10
DataValue, -2.25, 5.1614E-10
DataValue, -2.3000000000000003, 4.6610000000000008E-10
DataValue, -2.35, 3.9422E-10
DataValue, -2.4, 3.5476E-10
DataValue, -2.45, 3.0788000000000003E-10
DataValue, -2.5, 2.7872000000000005E-10
DataValue, -2.5500000000000003, 2.4282E-10
DataValue, -2.6, 2.5157000000000004E-10
DataValue, -2.65, 2.1216000000000002E-10
DataValue, -2.7, 2.1371E-10
DataValue, -2.75, 2.0113E-10
DataValue, -2.8000000000000003, 1.9228E-10
DataValue, -2.85, 1.7400000000000002E-10
DataValue, -2.9, 1.7347000000000002E-10
DataValue, -2.95, 1.5909000000000002E-10
DataValue, -3, 1.5592000000000002E-10
DataValue, -3.0500000000000003, 1.4805000000000002E-10
DataValue, -3.1, 1.2658000000000002E-10
DataValue, -3.15, 1.3074E-10
DataValue, -3.2, 1.2111E-10
DataValue, -3.25, 1.3013000000000002E-10
DataValue, -3.3000000000000003, 1.1776000000000002E-10
DataValue, -3.35, 1.1103E-10
DataValue, -3.4, 1.0612E-10
DataValue, -3.45, 1.0856000000000001E-10
DataValue, -3.5, 1.0391E-10
DataValue, -3.5500000000000003, 9.845E-11
