
SetupTitle, Transfer(1)
PrimitiveTest, I/V Sweep
TestParameter, Context.MainFrame, B1500A
TestParameter, Channel.UnitType, SMU, SMU
TestParameter, Channel.Unit, SMU1:HR, SMU2:HR
TestParameter, Channel.IName, Igs, Ids
TestParameter, Channel.VName, Vgs, Vds
TestParameter, Channel.Mode, V, V
TestParameter, Channel.Func, VAR1, VAR2
TestParameter, Channel.Index, 
TestParameter, Channel.Time, 
TestParameter, Measurement.Port.Unit, SMU1:HR, SMU2:HR
TestParameter, Measurement.Port.SeriesResistor, NONE, NONE
TestParameter, Measurement.Port.Filter, ON, ON
TestParameter, Measurement.Port.OutputVoltageComparison, 0, 0
TestParameter, Measurement.Primary.Locus, Double
TestParameter, Measurement.Primary.Scale, LINEAR
TestParameter, Measurement.Primary.Start, -5
TestParameter, Measurement.Primary.Stop, 5
TestParameter, Measurement.Primary.Step, 0.05
TestParameter, Measurement.Primary.Compliance, 0.05
TestParameter, Measurement.Primary.PowerCompliance, 0
TestParameter, Measurement.Aborting.Condition, STOP AT ANY ABNORMAL
TestParameter, Measurement.PostOutput.Value, START
TestParameter, Measurement.PostOutput.Retention, OFF
TestParameter, Measurement.Secondary.Start, 0.01
TestParameter, Measurement.Secondary.Count, 2
TestParameter, Measurement.Secondary.Step, 0.02
TestParameter, Measurement.Secondary.Compliance, 0.05
TestParameter, Measurement.Secondary.PowerCompliance, 0
TestParameter, Measurement.Bias.Source, -5, 0.01
TestParameter, Measurement.Bias.Compliance, 0.05, 0.05
TestParameter, Measurement.Monitor.Unit, SMU2:HR, SMU1:HR
TestParameter, Measurement.Monitor.Adc, HR ADC, HR ADC
TestParameter, Measurement.Monitor.Measurement, Compliance Side, Compliance Side
TestParameter, Measurement.Monitor.RangingMode, LIMITED, LIMITED
TestParameter, Measurement.Monitor.RangeBoundary, 100pA, 1nA
TestParameter, Measurement.Monitor.RangeRating, BY FULL RANGE, BY FULL RANGE
TestParameter, Measurement.Monitor.RangeRatingCoeff, 50, 50
TestParameter, Measurement.Timing.Hold, 0
TestParameter, Measurement.Timing.Delay, 0
TestParameter, Measurement.Adc.HighSpeed.Mode, AUTO
TestParameter, Measurement.Adc.HighSpeed.Coeff, 1
TestParameter, Measurement.Adc.HighResolution.AutoZero, OFF
TestParameter, Measurement.Adc.HighResolution.Mode, AUTO
TestParameter, Measurement.Adc.HighResolution.Coeff, 6
TestParameter, Measurement.WaitTime.Source.Coeff, 1
TestParameter, Measurement.WaitTime.Source.Offset, 0
TestParameter, Measurement.WaitTime.Monitor.Coeff, 1
TestParameter, Measurement.WaitTime.Monitor.Offset, 0
TestParameter, Output.Graph.Enabled, true
TestParameter, Output.Graph.AutoScaling, false
TestParameter, Output.Graph.XAxis.Data, Vgs
TestParameter, Output.Graph.XAxis.Scale, Linear
TestParameter, Output.Graph.XAxis.Left, -10
TestParameter, Output.Graph.XAxis.Right, 10
TestParameter, Output.Graph.XAxis.RunTimeAutoScale, true
TestParameter, Output.Graph.YAxis.Data, Ids
TestParameter, Output.Graph.YAxis.Scale, Linear
TestParameter, Output.Graph.YAxis.Bottom, -0.001
TestParameter, Output.Graph.YAxis.Top, 0.001
TestParameter, Output.Graph.YAxis.Group, 
TestParameter, Output.Graph.YAxis.RunTimeAutoScale, true
TestParameter, AutoAnalysis.Interpolation, false
TestParameter, AutoAnalysis.Line1.Enabled, false
TestParameter, AutoAnalysis.Line1.Type, 1
TestParameter, AutoAnalysis.Line1.Fix, True
TestParameter, AutoAnalysis.Line1.YAxis, 0
TestParameter, AutoAnalysis.Line1.Point1.Type, 0
TestParameter, AutoAnalysis.Line1.Point1.XY.X, 
TestParameter, AutoAnalysis.Line1.Point1.XY.Y, 
TestParameter, AutoAnalysis.Line1.Point1.Data.Var, 
TestParameter, AutoAnalysis.Line1.Point1.Data.Condition, 
TestParameter, AutoAnalysis.Line1.Point1.Data.Start, false
TestParameter, AutoAnalysis.Line1.Point1.Data.StartVar, 
TestParameter, AutoAnalysis.Line1.Point1.Data.StartCondition, 
TestParameter, AutoAnalysis.Line1.Point2.Type, 0
TestParameter, AutoAnalysis.Line1.Point2.XY.X, 
TestParameter, AutoAnalysis.Line1.Point2.XY.Y, 
TestParameter, AutoAnalysis.Line1.Point2.Data.Var, 
TestParameter, AutoAnalysis.Line1.Point2.Data.Condition, 
TestParameter, AutoAnalysis.Line1.Point2.Data.Start, false
TestParameter, AutoAnalysis.Line1.Point2.Data.StartVar, 
TestParameter, AutoAnalysis.Line1.Point2.Data.StartCondition, 
TestParameter, AutoAnalysis.Line1.GradientExpr, 0
TestParameter, AutoAnalysis.Line2.Enabled, false
TestParameter, AutoAnalysis.Line2.Type, 1
TestParameter, AutoAnalysis.Line2.Fix, True
TestParameter, AutoAnalysis.Line2.YAxis, 0
TestParameter, AutoAnalysis.Line2.Point1.Type, 0
TestParameter, AutoAnalysis.Line2.Point1.XY.X, 
TestParameter, AutoAnalysis.Line2.Point1.XY.Y, 
TestParameter, AutoAnalysis.Line2.Point1.Data.Var, 
TestParameter, AutoAnalysis.Line2.Point1.Data.Condition, 
TestParameter, AutoAnalysis.Line2.Point1.Data.Start, false
TestParameter, AutoAnalysis.Line2.Point1.Data.StartVar, 
TestParameter, AutoAnalysis.Line2.Point1.Data.StartCondition, 
TestParameter, AutoAnalysis.Line2.Point2.Type, 0
TestParameter, AutoAnalysis.Line2.Point2.XY.X, 
TestParameter, AutoAnalysis.Line2.Point2.XY.Y, 
TestParameter, AutoAnalysis.Line2.Point2.Data.Var, 
TestParameter, AutoAnalysis.Line2.Point2.Data.Condition, 
TestParameter, AutoAnalysis.Line2.Point2.Data.Start, false
TestParameter, AutoAnalysis.Line2.Point2.Data.StartVar, 
TestParameter, AutoAnalysis.Line2.Point2.Data.StartCondition, 
TestParameter, AutoAnalysis.Line2.GradientExpr, 0
TestParameter, AutoAnalysis.Marker.Enabled, false
TestParameter, AutoAnalysis.Marker.Data.Var, 
TestParameter, AutoAnalysis.Marker.Data.Condition, 
TestParameter, AutoAnalysis.Marker.Data.Start, false
TestParameter, AutoAnalysis.Marker.Data.StartVar, 
TestParameter, AutoAnalysis.Marker.Data.StartCondition, 
MetaData, TestRecord.EntryPoint, true
MetaData, TestRecord.RecordTime, 07/21/2020 18:56:56
MetaData, TestRecord.TestTarget, 0407c56
MetaData, TestRecord.IterationIndex, 19
MetaData, TestRecord.Preservation, true
MetaData, TestRecord.Flag, 
MetaData, TestRecord.Remarks, 
MetaData, TestRecord.LinkKey, 8c1c4e47-90c5-490e-817e-fae5d76b2819
Dimension1, 402, 402
Dimension2, 2, 2
DataName, Vgs, Ids
DataValue, -5, 1.5628E-09
DataValue, -4.95, 1.5092E-09
DataValue, -4.9, 1.6539E-09
DataValue, -4.8500000000000005, 1.6557E-09
DataValue, -4.8, 1.5836E-09
DataValue, -4.75, 1.867E-09
DataValue, -4.7, 1.8633E-09
DataValue, -4.65, 1.8772E-09
DataValue, -4.6000000000000005, 2.1226E-09
DataValue, -4.55, 1.9813E-09
DataValue, -4.5, 2.2615E-09
DataValue, -4.45, 2.2744E-09
DataValue, -4.4, 2.5644E-09
DataValue, -4.3500000000000005, 2.5117E-09
DataValue, -4.3, 2.6351E-09
DataValue, -4.25, 2.735E-09
DataValue, -4.2, 2.8876E-09
DataValue, -4.15, 3.2247E-09
DataValue, -4.1, 3.4612E-09
DataValue, -4.05, 3.4143E-09
DataValue, -4, 3.6792E-09
DataValue, -3.95, 3.8681E-09
DataValue, -3.9, 3.9331E-09
DataValue, -3.85, 3.9779E-09
DataValue, -3.8000000000000003, 4.1368E-09
DataValue, -3.75, 4.2929E-09
DataValue, -3.7, 4.7433E-09
DataValue, -3.65, 4.7265E-09
DataValue, -3.6, 4.7475E-09
DataValue, -3.5500000000000003, 4.7691E-09
DataValue, -3.5, 5.3953E-09
DataValue, -3.45, 5.3326E-09
DataValue, -3.4, 5.4526999999999996E-09
DataValue, -3.35, 6.5402E-09
DataValue, -3.3000000000000003, 7.2216E-09
DataValue, -3.25, 6.9272E-09
DataValue, -3.2, 6.7282E-09
DataValue, -3.15, 7.1775E-09
DataValue, -3.1, 7.5686E-09
DataValue, -3.0500000000000003, 8.9487E-09
DataValue, -3, 9.4905E-09
DataValue, -2.95, 9.6291E-09
DataValue, -2.9, 9.8803E-09
DataValue, -2.85, 9.7124E-09
DataValue, -2.8000000000000003, 1.0396E-08
DataValue, -2.75, 1.13192E-08
DataValue, -2.7, 1.2278599999999999E-08
DataValue, -2.65, 1.3833799999999999E-08
DataValue, -2.6, 1.5085399999999998E-08
DataValue, -2.5500000000000003, 1.6411999999999998E-08
DataValue, -2.5, 1.76888E-08
DataValue, -2.45, 1.98828E-08
DataValue, -2.4, 2.0507999999999997E-08
DataValue, -2.35, 2.21788E-08
DataValue, -2.3000000000000003, 2.1903799999999998E-08
DataValue, -2.25, 2.3646599999999998E-08
DataValue, -2.2, 2.6031199999999998E-08
DataValue, -2.15, 2.7880399999999997E-08
DataValue, -2.1, 2.9329799999999998E-08
DataValue, -2.05, 3.3254399999999996E-08
DataValue, -2, 3.41752E-08
DataValue, -1.95, 3.6557399999999996E-08
DataValue, -1.9000000000000001, 4.1052599999999995E-08
DataValue, -1.85, 4.044E-08
DataValue, -1.8, 4.5666999999999995E-08
DataValue, -1.75, 4.6488799999999996E-08
DataValue, -1.7, 4.8082999999999995E-08
DataValue, -1.6500000000000001, 5.2713E-08
DataValue, -1.6, 5.5963599999999996E-08
DataValue, -1.55, 5.7914399999999993E-08
DataValue, -1.5, 6.04162E-08
DataValue, -1.45, 6.2997199999999989E-08
DataValue, -1.4000000000000001, 6.71342E-08
DataValue, -1.35, 7.0477199999999987E-08
DataValue, -1.3, 7.3065599999999992E-08
DataValue, -1.25, 7.525319999999999E-08
DataValue, -1.2, 7.81818E-08
DataValue, -1.1500000000000001, 8.3074599999999986E-08
DataValue, -1.1, 8.72124E-08
DataValue, -1.05, 8.953E-08
DataValue, -1, 9.5571799999999993E-08
DataValue, -0.95000000000000007, 9.9230399999999991E-08
DataValue, -0.9, 1.0543279999999999E-07
DataValue, -0.85, 1.0842299999999999E-07
DataValue, -0.8, 1.1499619999999999E-07
DataValue, -0.75, 1.249E-07
DataValue, -0.70000000000000007, 1.3082E-07
DataValue, -0.65, 1.3536E-07
DataValue, -0.6, 1.4146E-07
DataValue, -0.55, 1.4724E-07
DataValue, -0.5, 1.5218E-07
DataValue, -0.45, 1.5896E-07
DataValue, -0.4, 1.5995999999999998E-07
DataValue, -0.35000000000000003, 1.7034E-07
DataValue, -0.3, 1.7628E-07
DataValue, -0.25, 1.8288E-07
DataValue, -0.2, 1.8706E-07
DataValue, -0.15, 1.9527999999999999E-07
DataValue, -0.1, 1.9894E-07
DataValue, -0.05, 2.0526E-07
DataValue, 0, 2.1126E-07
DataValue, 0.05, 2.1766E-07
DataValue, 0.1, 2.2454E-07
DataValue, 0.15, 2.3262E-07
DataValue, 0.2, 2.3762E-07
DataValue, 0.25, 2.4422E-07
DataValue, 0.3, 2.4812E-07
DataValue, 0.35000000000000003, 2.5441999999999997E-07
DataValue, 0.4, 2.65E-07
DataValue, 0.45, 2.7068E-07
DataValue, 0.5, 2.779E-07
DataValue, 0.55, 2.8368E-07
DataValue, 0.6, 2.8888E-07
DataValue, 0.65, 2.9534E-07
DataValue, 0.70000000000000007, 3.0133999999999997E-07
DataValue, 0.75, 3.079E-07
DataValue, 0.8, 3.1612E-07
DataValue, 0.85, 3.2254E-07
DataValue, 0.9, 3.2918E-07
DataValue, 0.95000000000000007, 3.3586E-07
DataValue, 1, 3.4342E-07
DataValue, 1.05, 3.4918E-07
DataValue, 1.1, 3.5748E-07
DataValue, 1.1500000000000001, 3.6178E-07
DataValue, 1.2, 3.666E-07
DataValue, 1.25, 3.7502E-07
DataValue, 1.3, 3.8208E-07
DataValue, 1.35, 3.8756E-07
DataValue, 1.4000000000000001, 3.9538E-07
DataValue, 1.45, 4.0126E-07
DataValue, 1.5, 4.1E-07
DataValue, 1.55, 4.1594E-07
DataValue, 1.6, 4.2274E-07
DataValue, 1.6500000000000001, 4.3107999999999997E-07
DataValue, 1.7, 4.3582E-07
DataValue, 1.75, 4.429E-07
DataValue, 1.8, 4.504E-07
DataValue, 1.85, 4.5658E-07
DataValue, 1.9000000000000001, 4.62E-07
DataValue, 1.95, 4.6756E-07
DataValue, 2, 4.7494E-07
DataValue, 2.05, 4.8119999999999994E-07
DataValue, 2.1, 4.8384E-07
DataValue, 2.15, 4.8872E-07
DataValue, 2.2, 4.962E-07
DataValue, 2.25, 5.0228E-07
DataValue, 2.3000000000000003, 5.0738E-07
DataValue, 2.35, 5.1082E-07
DataValue, 2.4, 5.176E-07
DataValue, 2.45, 5.2142E-07
DataValue, 2.5, 5.2848E-07
DataValue, 2.5500000000000003, 5.3094E-07
DataValue, 2.6, 5.3944E-07
DataValue, 2.65, 5.4382E-07
DataValue, 2.7, 5.4872E-07
DataValue, 2.75, 5.538E-07
DataValue, 2.8000000000000003, 5.5998E-07
DataValue, 2.85, 5.6174E-07
DataValue, 2.9, 5.6896E-07
DataValue, 2.95, 5.736E-07
DataValue, 3, 5.7788E-07
DataValue, 3.0500000000000003, 5.815E-07
DataValue, 3.1, 5.8784E-07
DataValue, 3.15, 5.9128E-07
DataValue, 3.2, 5.9434E-07
DataValue, 3.25, 5.9874E-07
DataValue, 3.3000000000000003, 6.0358E-07
DataValue, 3.35, 6.0882E-07
DataValue, 3.4, 6.1082E-07
DataValue, 3.45, 6.1494E-07
DataValue, 3.5, 6.1784E-07
DataValue, 3.5500000000000003, 6.2002E-07
DataValue, 3.6, 6.229E-07
DataValue, 3.65, 6.295E-07
DataValue, 3.7, 6.328E-07
DataValue, 3.75, 6.3772E-07
DataValue, 3.8000000000000003, 6.382E-07
DataValue, 3.85, 6.4418E-07
DataValue, 3.9, 6.481E-07
DataValue, 3.95, 6.5112E-07
DataValue, 4, 6.5732E-07
DataValue, 4.05, 6.5996E-07
DataValue, 4.1, 6.6256E-07
DataValue, 4.15, 6.6646E-07
DataValue, 4.2, 6.7142E-07
DataValue, 4.25, 6.7274E-07
DataValue, 4.3, 6.7671999999999993E-07
DataValue, 4.3500000000000005, 6.8032E-07
DataValue, 4.4, 6.8572E-07
DataValue, 4.45, 6.8744E-07
DataValue, 4.5, 6.9116E-07
DataValue, 4.55, 6.9572E-07
DataValue, 4.6000000000000005, 6.9752E-07
DataValue, 4.65, 7.0164E-07
DataValue, 4.7, 7.0982E-07
DataValue, 4.75, 7.1051999999999993E-07
DataValue, 4.8, 7.1256E-07
DataValue, 4.8500000000000005, 7.1892E-07
DataValue, 4.9, 7.1982E-07
DataValue, 4.95, 7.2078E-07
DataValue, 5, 7.2526E-07
DataValue, 5, 7.2482E-07
DataValue, 4.95, 7.2789999999999995E-07
DataValue, 4.9, 7.2692E-07
DataValue, 4.8500000000000005, 7.2761999999999995E-07
DataValue, 4.8, 7.247E-07
DataValue, 4.75, 7.2328E-07
DataValue, 4.7, 7.2366E-07
DataValue, 4.65, 7.2026E-07
DataValue, 4.6000000000000005, 7.1816E-07
DataValue, 4.55, 7.196E-07
DataValue, 4.5, 7.1864E-07
DataValue, 4.45, 7.1714E-07
DataValue, 4.4, 7.1312E-07
DataValue, 4.3500000000000005, 7.113E-07
DataValue, 4.3, 7.1266E-07
DataValue, 4.25, 7.107E-07
DataValue, 4.2, 7.0781999999999994E-07
DataValue, 4.15, 7.0725999999999994E-07
DataValue, 4.1, 7.0546E-07
DataValue, 4.05, 7.0249999999999994E-07
DataValue, 4, 7.0438E-07
DataValue, 3.95, 7.0148E-07
DataValue, 3.9, 6.9894E-07
DataValue, 3.85, 6.9623999999999994E-07
DataValue, 3.8000000000000003, 6.9476E-07
DataValue, 3.75, 6.9286E-07
DataValue, 3.7, 6.9308E-07
DataValue, 3.65, 6.9203999999999994E-07
DataValue, 3.6, 6.9124E-07
DataValue, 3.5500000000000003, 6.8994E-07
DataValue, 3.5, 6.8736E-07
DataValue, 3.45, 6.8486E-07
DataValue, 3.4, 6.8216E-07
DataValue, 3.35, 6.8213999999999994E-07
DataValue, 3.3000000000000003, 6.8218E-07
DataValue, 3.25, 6.7916E-07
DataValue, 3.2, 6.7642E-07
DataValue, 3.15, 6.7432E-07
DataValue, 3.1, 6.7391999999999994E-07
DataValue, 3.0500000000000003, 6.7065999999999995E-07
DataValue, 3, 6.6878E-07
DataValue, 2.95, 6.6566E-07
DataValue, 2.9, 6.6142E-07
DataValue, 2.85, 6.6096E-07
DataValue, 2.8000000000000003, 6.5984E-07
DataValue, 2.75, 6.5421999999999994E-07
DataValue, 2.7, 6.5128E-07
DataValue, 2.65, 6.4958E-07
DataValue, 2.6, 6.462E-07
DataValue, 2.5500000000000003, 6.4428E-07
DataValue, 2.5, 6.4074E-07
DataValue, 2.45, 6.3898E-07
DataValue, 2.4, 6.3566E-07
DataValue, 2.35, 6.3186E-07
DataValue, 2.3000000000000003, 6.274E-07
DataValue, 2.25, 6.2488E-07
DataValue, 2.2, 6.2184E-07
DataValue, 2.15, 6.1636E-07
DataValue, 2.1, 6.1186E-07
DataValue, 2.05, 6.086E-07
DataValue, 2, 6.0452E-07
DataValue, 1.95, 6.0028E-07
DataValue, 1.9000000000000001, 5.961E-07
DataValue, 1.85, 5.9078E-07
DataValue, 1.8, 5.8838E-07
DataValue, 1.75, 5.838E-07
DataValue, 1.7, 5.8124E-07
DataValue, 1.6500000000000001, 5.7102E-07
DataValue, 1.6, 5.6653999999999994E-07
DataValue, 1.55, 5.6446E-07
DataValue, 1.5, 5.591E-07
DataValue, 1.45, 5.5284E-07
DataValue, 1.4000000000000001, 5.4864E-07
DataValue, 1.35, 5.4322E-07
DataValue, 1.3, 5.3668E-07
DataValue, 1.25, 5.3171999999999995E-07
DataValue, 1.2, 5.2904E-07
DataValue, 1.1500000000000001, 5.2272E-07
DataValue, 1.1, 5.1788E-07
DataValue, 1.05, 5.0928E-07
DataValue, 1, 5.0425999999999994E-07
DataValue, 0.95000000000000007, 5.002E-07
DataValue, 0.9, 4.9286E-07
DataValue, 0.85, 4.8814E-07
DataValue, 0.8, 4.829E-07
DataValue, 0.75, 4.76E-07
DataValue, 0.70000000000000007, 4.7014E-07
DataValue, 0.65, 4.6427999999999997E-07
DataValue, 0.6, 4.5824E-07
DataValue, 0.55, 4.5194E-07
DataValue, 0.5, 4.4447999999999997E-07
DataValue, 0.45, 4.367E-07
DataValue, 0.4, 4.3134E-07
DataValue, 0.35000000000000003, 4.2402E-07
DataValue, 0.3, 4.1903999999999997E-07
DataValue, 0.25, 4.1221999999999997E-07
DataValue, 0.2, 4.042E-07
DataValue, 0.15, 3.9846E-07
DataValue, 0.1, 3.9148E-07
DataValue, 0.05, 3.8148E-07
DataValue, 0, 3.757E-07
DataValue, -0.05, 3.6792E-07
DataValue, -0.1, 3.6178E-07
DataValue, -0.15, 3.5497999999999997E-07
DataValue, -0.2, 3.451E-07
DataValue, -0.25, 3.4022E-07
DataValue, -0.3, 3.3302E-07
DataValue, -0.35000000000000003, 3.2354E-07
DataValue, -0.4, 3.1578E-07
DataValue, -0.45, 3.1032E-07
DataValue, -0.5, 2.9802E-07
DataValue, -0.55, 2.9266E-07
DataValue, -0.6, 2.84E-07
DataValue, -0.65, 2.7746E-07
DataValue, -0.70000000000000007, 2.664E-07
DataValue, -0.75, 2.5692E-07
DataValue, -0.8, 2.4876E-07
DataValue, -0.85, 2.4124E-07
DataValue, -0.9, 2.331E-07
DataValue, -0.95000000000000007, 2.2562E-07
DataValue, -1, 2.17E-07
DataValue, -1.05, 2.0654E-07
DataValue, -1.1, 1.984E-07
DataValue, -1.1500000000000001, 1.9066E-07
DataValue, -1.2, 1.8154E-07
DataValue, -1.25, 1.746E-07
DataValue, -1.3, 1.7134E-07
DataValue, -1.35, 1.595E-07
DataValue, -1.4000000000000001, 1.4821999999999999E-07
DataValue, -1.45, 1.4452E-07
DataValue, -1.5, 1.3716E-07
DataValue, -1.55, 1.2654E-07
DataValue, -1.6, 1.2032E-07
DataValue, -1.6500000000000001, 1.1378E-07
DataValue, -1.7, 1.0676E-07
DataValue, -1.75, 1.0105999999999999E-07
DataValue, -1.8, 9.2675999999999989E-08
DataValue, -1.85, 8.6344399999999991E-08
DataValue, -1.9000000000000001, 8.02934E-08
DataValue, -1.95, 7.53338E-08
DataValue, -2, 7.13482E-08
DataValue, -2.05, 6.47594E-08
DataValue, -2.1, 6.1868199999999993E-08
DataValue, -2.15, 5.80202E-08
DataValue, -2.2, 5.3956E-08
DataValue, -2.25, 5.1955199999999995E-08
DataValue, -2.3000000000000003, 4.9487E-08
DataValue, -2.35, 4.54032E-08
DataValue, -2.4, 4.26382E-08
DataValue, -2.45, 4.11332E-08
DataValue, -2.5, 3.7401799999999995E-08
DataValue, -2.5500000000000003, 3.3783E-08
DataValue, -2.6, 3.11182E-08
DataValue, -2.65, 3.16898E-08
DataValue, -2.7, 3.07064E-08
DataValue, -2.75, 2.8064199999999997E-08
DataValue, -2.8000000000000003, 2.49732E-08
DataValue, -2.85, 2.3611399999999997E-08
DataValue, -2.9, 2.2106799999999996E-08
DataValue, -2.95, 2.02984E-08
DataValue, -3, 2.0332399999999998E-08
DataValue, -3.0500000000000003, 1.8646199999999998E-08
DataValue, -3.1, 1.6775E-08
DataValue, -3.15, 1.36752E-08
DataValue, -3.2, 1.34354E-08
DataValue, -3.25, 1.2463599999999998E-08
DataValue, -3.3000000000000003, 1.1074399999999999E-08
DataValue, -3.35, 1.0415199999999999E-08
DataValue, -3.4, 1.0951199999999999E-08
DataValue, -3.45, 1.0322E-08
DataValue, -3.5, 8.8652E-09
DataValue, -3.5500000000000003, 8.7327999999999986E-09
DataValue, -3.6, 7.4105E-09
DataValue, -3.65, 7.0005E-09
DataValue, -3.7, 5.9462E-09
DataValue, -3.75, 5.5218E-09
DataValue, -3.8000000000000003, 5.38E-09
DataValue, -3.85, 4.7499E-09
DataValue, -3.9, 4.5991E-09
DataValue, -3.95, 4.4382E-09
DataValue, -4, 4.658E-09
DataValue, -4.05, 4.3401E-09
DataValue, -4.1, 4.0443E-09
DataValue, -4.15, 3.721E-09
DataValue, -4.2, 3.3576E-09
DataValue, -4.25, 3.0324E-09
DataValue, -4.3, 2.8697E-09
DataValue, -4.3500000000000005, 2.7571E-09
DataValue, -4.4, 2.4271E-09
DataValue, -4.45, 2.2575E-09
DataValue, -4.5, 1.9838E-09
DataValue, -4.55, 2.0393E-09
DataValue, -4.6000000000000005, 1.9659E-09
DataValue, -4.65, 1.8318E-09
DataValue, -4.7, 1.9711E-09
DataValue, -4.75, 1.6988E-09
DataValue, -4.8, 1.8121E-09
DataValue, -4.8500000000000005, 1.7591E-09
DataValue, -4.9, 1.6382E-09
DataValue, -4.95, 1.4854E-09
DataValue, -5, 1.5316E-09
DataValue, -5, 7.769E-09
DataValue, -4.95, 7.4669E-09
DataValue, -4.9, 9.2439E-09
DataValue, -4.8500000000000005, 9.1231E-09
DataValue, -4.8, 1.06793E-08
DataValue, -4.75, 1.00332E-08
DataValue, -4.7, 1.11243E-08
DataValue, -4.65, 1.08861E-08
DataValue, -4.6000000000000005, 1.14386E-08
DataValue, -4.55, 1.1174399999999998E-08
