
SetupTitle, Transfer(1)
PrimitiveTest, I/V Sweep
TestParameter, Context.MainFrame, B1500A
TestParameter, Channel.UnitType, SMU, SMU
TestParameter, Channel.Unit, SMU1:HR, SMU2:HR
TestParameter, Channel.IName, Igs, Ids
TestParameter, Channel.VName, Vgs, Vds
TestParameter, Channel.Mode, V, V
TestParameter, Channel.Func, VAR1, VAR2
TestParameter, Channel.Index, 
TestParameter, Channel.Time, 
TestParameter, Measurement.Port.Unit, SMU1:HR, SMU2:HR
TestParameter, Measurement.Port.SeriesResistor, NONE, NONE
TestParameter, Measurement.Port.Filter, ON, ON
TestParameter, Measurement.Port.OutputVoltageComparison, 0, 0
TestParameter, Measurement.Primary.Locus, Double
TestParameter, Measurement.Primary.Scale, LINEAR
TestParameter, Measurement.Primary.Start, -5
TestParameter, Measurement.Primary.Stop, 5
TestParameter, Measurement.Primary.Step, 0.05
TestParameter, Measurement.Primary.Compliance, 0.05
TestParameter, Measurement.Primary.PowerCompliance, 0
TestParameter, Measurement.Aborting.Condition, STOP AT ANY ABNORMAL
TestParameter, Measurement.PostOutput.Value, START
TestParameter, Measurement.PostOutput.Retention, OFF
TestParameter, Measurement.Secondary.Start, 0.01
TestParameter, Measurement.Secondary.Count, 2
TestParameter, Measurement.Secondary.Step, 0.02
TestParameter, Measurement.Secondary.Compliance, 0.05
TestParameter, Measurement.Secondary.PowerCompliance, 0
TestParameter, Measurement.Bias.Source, -5, 0.01
TestParameter, Measurement.Bias.Compliance, 0.05, 0.05
TestParameter, Measurement.Monitor.Unit, SMU2:HR, SMU1:HR
TestParameter, Measurement.Monitor.Adc, HR ADC, HR ADC
TestParameter, Measurement.Monitor.Measurement, Compliance Side, Compliance Side
TestParameter, Measurement.Monitor.RangingMode, LIMITED, LIMITED
TestParameter, Measurement.Monitor.RangeBoundary, 100pA, 1nA
TestParameter, Measurement.Monitor.RangeRating, BY FULL RANGE, BY FULL RANGE
TestParameter, Measurement.Monitor.RangeRatingCoeff, 50, 50
TestParameter, Measurement.Timing.Hold, 0
TestParameter, Measurement.Timing.Delay, 0
TestParameter, Measurement.Adc.HighSpeed.Mode, AUTO
TestParameter, Measurement.Adc.HighSpeed.Coeff, 1
TestParameter, Measurement.Adc.HighResolution.AutoZero, OFF
TestParameter, Measurement.Adc.HighResolution.Mode, AUTO
TestParameter, Measurement.Adc.HighResolution.Coeff, 6
TestParameter, Measurement.WaitTime.Source.Coeff, 1
TestParameter, Measurement.WaitTime.Source.Offset, 0
TestParameter, Measurement.WaitTime.Monitor.Coeff, 1
TestParameter, Measurement.WaitTime.Monitor.Offset, 0
TestParameter, Output.Graph.Enabled, true
TestParameter, Output.Graph.AutoScaling, false
TestParameter, Output.Graph.XAxis.Data, Vgs
TestParameter, Output.Graph.XAxis.Scale, Linear
TestParameter, Output.Graph.XAxis.Left, -10
TestParameter, Output.Graph.XAxis.Right, 10
TestParameter, Output.Graph.XAxis.RunTimeAutoScale, true
TestParameter, Output.Graph.YAxis.Data, Ids
TestParameter, Output.Graph.YAxis.Scale, Linear
TestParameter, Output.Graph.YAxis.Bottom, -0.001
TestParameter, Output.Graph.YAxis.Top, 0.001
TestParameter, Output.Graph.YAxis.Group, 
TestParameter, Output.Graph.YAxis.RunTimeAutoScale, true
TestParameter, AutoAnalysis.Interpolation, false
TestParameter, AutoAnalysis.Line1.Enabled, false
TestParameter, AutoAnalysis.Line1.Type, 1
TestParameter, AutoAnalysis.Line1.Fix, True
TestParameter, AutoAnalysis.Line1.YAxis, 0
TestParameter, AutoAnalysis.Line1.Point1.Type, 0
TestParameter, AutoAnalysis.Line1.Point1.XY.X, 
TestParameter, AutoAnalysis.Line1.Point1.XY.Y, 
TestParameter, AutoAnalysis.Line1.Point1.Data.Var, 
TestParameter, AutoAnalysis.Line1.Point1.Data.Condition, 
TestParameter, AutoAnalysis.Line1.Point1.Data.Start, false
TestParameter, AutoAnalysis.Line1.Point1.Data.StartVar, 
TestParameter, AutoAnalysis.Line1.Point1.Data.StartCondition, 
TestParameter, AutoAnalysis.Line1.Point2.Type, 0
TestParameter, AutoAnalysis.Line1.Point2.XY.X, 
TestParameter, AutoAnalysis.Line1.Point2.XY.Y, 
TestParameter, AutoAnalysis.Line1.Point2.Data.Var, 
TestParameter, AutoAnalysis.Line1.Point2.Data.Condition, 
TestParameter, AutoAnalysis.Line1.Point2.Data.Start, false
TestParameter, AutoAnalysis.Line1.Point2.Data.StartVar, 
TestParameter, AutoAnalysis.Line1.Point2.Data.StartCondition, 
TestParameter, AutoAnalysis.Line1.GradientExpr, 0
TestParameter, AutoAnalysis.Line2.Enabled, false
TestParameter, AutoAnalysis.Line2.Type, 1
TestParameter, AutoAnalysis.Line2.Fix, True
TestParameter, AutoAnalysis.Line2.YAxis, 0
TestParameter, AutoAnalysis.Line2.Point1.Type, 0
TestParameter, AutoAnalysis.Line2.Point1.XY.X, 
TestParameter, AutoAnalysis.Line2.Point1.XY.Y, 
TestParameter, AutoAnalysis.Line2.Point1.Data.Var, 
TestParameter, AutoAnalysis.Line2.Point1.Data.Condition, 
TestParameter, AutoAnalysis.Line2.Point1.Data.Start, false
TestParameter, AutoAnalysis.Line2.Point1.Data.StartVar, 
TestParameter, AutoAnalysis.Line2.Point1.Data.StartCondition, 
TestParameter, AutoAnalysis.Line2.Point2.Type, 0
TestParameter, AutoAnalysis.Line2.Point2.XY.X, 
TestParameter, AutoAnalysis.Line2.Point2.XY.Y, 
TestParameter, AutoAnalysis.Line2.Point2.Data.Var, 
TestParameter, AutoAnalysis.Line2.Point2.Data.Condition, 
TestParameter, AutoAnalysis.Line2.Point2.Data.Start, false
TestParameter, AutoAnalysis.Line2.Point2.Data.StartVar, 
TestParameter, AutoAnalysis.Line2.Point2.Data.StartCondition, 
TestParameter, AutoAnalysis.Line2.GradientExpr, 0
TestParameter, AutoAnalysis.Marker.Enabled, false
TestParameter, AutoAnalysis.Marker.Data.Var, 
TestParameter, AutoAnalysis.Marker.Data.Condition, 
TestParameter, AutoAnalysis.Marker.Data.Start, false
TestParameter, AutoAnalysis.Marker.Data.StartVar, 
TestParameter, AutoAnalysis.Marker.Data.StartCondition, 
MetaData, TestRecord.EntryPoint, true
MetaData, TestRecord.RecordTime, 07/21/2020 19:48:41
MetaData, TestRecord.TestTarget, 0905d23
MetaData, TestRecord.IterationIndex, 52
MetaData, TestRecord.Preservation, true
MetaData, TestRecord.Flag, 
MetaData, TestRecord.Remarks, 
MetaData, TestRecord.LinkKey, 79f03cdb-3025-44b6-bc85-81a85192767a
Dimension1, 402, 402
Dimension2, 2, 2
DataName, Vgs, Ids
DataValue, -5, 8.9006E-10
DataValue, -4.95, 7.8706000000000007E-10
DataValue, -4.9, 7.505300000000001E-10
DataValue, -4.8500000000000005, 8.1273E-10
DataValue, -4.8, 7.6017000000000007E-10
DataValue, -4.75, 7.8178000000000007E-10
DataValue, -4.7, 8.7070000000000011E-10
DataValue, -4.65, 9.3902000000000013E-10
DataValue, -4.6000000000000005, 1.0753E-09
DataValue, -4.55, 9.6757E-10
DataValue, -4.5, 9.6955E-10
DataValue, -4.45, 1.05935E-09
DataValue, -4.4, 1.04775E-09
DataValue, -4.3500000000000005, 1.3372E-09
DataValue, -4.3, 1.3785E-09
DataValue, -4.25, 1.2625E-09
DataValue, -4.2, 1.384E-09
DataValue, -4.15, 1.5585E-09
DataValue, -4.1, 1.3254E-09
DataValue, -4.05, 1.4696E-09
DataValue, -4, 1.653E-09
DataValue, -3.95, 1.6051E-09
DataValue, -3.9, 1.8947E-09
DataValue, -3.85, 2.2111E-09
DataValue, -3.8000000000000003, 2.3058E-09
DataValue, -3.75, 2.2968E-09
DataValue, -3.7, 2.4107E-09
DataValue, -3.65, 2.3286E-09
DataValue, -3.6, 2.3202E-09
DataValue, -3.5500000000000003, 2.6395E-09
DataValue, -3.5, 2.7463E-09
DataValue, -3.45, 2.9346E-09
DataValue, -3.4, 2.9467999999999998E-09
DataValue, -3.35, 3.214E-09
DataValue, -3.3000000000000003, 3.6858E-09
DataValue, -3.25, 3.7334E-09
DataValue, -3.2, 3.8064E-09
DataValue, -3.15, 4.6503E-09
DataValue, -3.1, 4.8393E-09
DataValue, -3.0500000000000003, 4.3967E-09
DataValue, -3, 5.2287E-09
DataValue, -2.95, 5.2888E-09
DataValue, -2.9, 5.118E-09
DataValue, -2.85, 6.1079E-09
DataValue, -2.8000000000000003, 7.1893E-09
DataValue, -2.75, 7.372E-09
DataValue, -2.7, 7.1939E-09
DataValue, -2.65, 7.3937E-09
DataValue, -2.6, 7.3313E-09
DataValue, -2.5500000000000003, 6.8529E-09
DataValue, -2.5, 7.4692E-09
DataValue, -2.45, 8.1108E-09
DataValue, -2.4, 8.886E-09
DataValue, -2.35, 9.6608E-09
DataValue, -2.3000000000000003, 1.03953E-08
DataValue, -2.25, 1.2250599999999998E-08
DataValue, -2.2, 1.2593599999999998E-08
DataValue, -2.15, 1.4265999999999999E-08
DataValue, -2.1, 1.5643199999999997E-08
DataValue, -2.05, 1.6416399999999998E-08
DataValue, -2, 1.61322E-08
DataValue, -1.95, 1.6987E-08
DataValue, -1.9000000000000001, 1.7062599999999997E-08
DataValue, -1.85, 1.92372E-08
DataValue, -1.8, 2.0755999999999997E-08
DataValue, -1.75, 1.9724E-08
DataValue, -1.7, 2.27792E-08
DataValue, -1.6500000000000001, 2.49642E-08
DataValue, -1.6, 2.7341399999999998E-08
DataValue, -1.55, 2.8809199999999998E-08
DataValue, -1.5, 2.9289399999999997E-08
DataValue, -1.45, 3.1677999999999994E-08
DataValue, -1.4000000000000001, 3.2242E-08
DataValue, -1.35, 3.3954999999999995E-08
DataValue, -1.3, 3.40236E-08
DataValue, -1.25, 3.5084799999999995E-08
DataValue, -1.2, 3.66272E-08
DataValue, -1.1500000000000001, 3.84378E-08
DataValue, -1.1, 3.9400599999999995E-08
DataValue, -1.05, 4.0320399999999995E-08
DataValue, -1, 4.30248E-08
DataValue, -0.95000000000000007, 4.52998E-08
DataValue, -0.9, 4.7655799999999996E-08
DataValue, -0.85, 4.8797599999999996E-08
DataValue, -0.8, 5.1248399999999992E-08
DataValue, -0.75, 5.3324999999999996E-08
DataValue, -0.70000000000000007, 5.3444399999999994E-08
DataValue, -0.65, 5.4757999999999993E-08
DataValue, -0.6, 5.3780599999999995E-08
DataValue, -0.55, 5.7410799999999993E-08
DataValue, -0.5, 5.8846799999999993E-08
DataValue, -0.45, 6.03204E-08
DataValue, -0.4, 6.2172399999999991E-08
DataValue, -0.35000000000000003, 6.3446399999999993E-08
DataValue, -0.3, 6.6979E-08
DataValue, -0.25, 6.96964E-08
DataValue, -0.2, 7.103479999999999E-08
DataValue, -0.15, 7.3873799999999993E-08
DataValue, -0.1, 7.57394E-08
DataValue, -0.05, 7.8731399999999987E-08
DataValue, 0, 8.2015399999999992E-08
DataValue, 0.05, 8.38906E-08
DataValue, 0.1, 8.6847E-08
DataValue, 0.15, 9.0302399999999992E-08
DataValue, 0.2, 9.50544E-08
DataValue, 0.25, 9.94236E-08
DataValue, 0.3, 1.0446079999999999E-07
DataValue, 0.35000000000000003, 1.0734399999999999E-07
DataValue, 0.4, 1.1139279999999999E-07
DataValue, 0.45, 1.1447999999999999E-07
DataValue, 0.5, 1.1973999999999999E-07
DataValue, 0.55, 1.2236E-07
DataValue, 0.6, 1.246E-07
DataValue, 0.65, 1.274E-07
DataValue, 0.70000000000000007, 1.2968E-07
DataValue, 0.75, 1.3058E-07
DataValue, 0.8, 1.3422E-07
DataValue, 0.85, 1.3838E-07
DataValue, 0.9, 1.3988E-07
DataValue, 0.95000000000000007, 1.4234E-07
DataValue, 1, 1.4528E-07
DataValue, 1.05, 1.47E-07
DataValue, 1.1, 1.511E-07
DataValue, 1.1500000000000001, 1.5254E-07
DataValue, 1.2, 1.5552E-07
DataValue, 1.25, 1.575E-07
DataValue, 1.3, 1.5966E-07
DataValue, 1.35, 1.613E-07
DataValue, 1.4000000000000001, 1.6558E-07
DataValue, 1.45, 1.6782E-07
DataValue, 1.5, 1.7038E-07
DataValue, 1.55, 1.7276E-07
DataValue, 1.6, 1.7544E-07
DataValue, 1.6500000000000001, 1.7724E-07
DataValue, 1.7, 1.8033999999999999E-07
DataValue, 1.75, 1.8392E-07
DataValue, 1.8, 1.8576E-07
DataValue, 1.85, 1.8566E-07
DataValue, 1.9000000000000001, 1.8857999999999999E-07
DataValue, 1.95, 1.9162E-07
DataValue, 2, 1.924E-07
DataValue, 2.05, 1.9345999999999999E-07
DataValue, 2.1, 1.9666E-07
DataValue, 2.15, 1.9742E-07
DataValue, 2.2, 1.9988E-07
DataValue, 2.25, 2.0008E-07
DataValue, 2.3000000000000003, 2.02E-07
DataValue, 2.35, 2.0482E-07
DataValue, 2.4, 2.0614E-07
DataValue, 2.45, 2.0794E-07
DataValue, 2.5, 2.1042E-07
DataValue, 2.5500000000000003, 2.1382E-07
DataValue, 2.6, 2.1786E-07
DataValue, 2.65, 2.167E-07
DataValue, 2.7, 2.2108E-07
DataValue, 2.75, 2.2372E-07
DataValue, 2.8000000000000003, 2.261E-07
DataValue, 2.85, 2.2501999999999999E-07
DataValue, 2.9, 2.2914E-07
DataValue, 2.95, 2.3154E-07
DataValue, 3, 2.3222E-07
DataValue, 3.0500000000000003, 2.3406E-07
DataValue, 3.1, 2.3646E-07
DataValue, 3.15, 2.372E-07
DataValue, 3.2, 2.4E-07
DataValue, 3.25, 2.4115999999999997E-07
DataValue, 3.3000000000000003, 2.426E-07
DataValue, 3.35, 2.4451999999999997E-07
DataValue, 3.4, 2.4706E-07
DataValue, 3.45, 2.471E-07
DataValue, 3.5, 2.4752E-07
DataValue, 3.5500000000000003, 2.4986E-07
DataValue, 3.6, 2.5342E-07
DataValue, 3.65, 2.535E-07
DataValue, 3.7, 2.5686E-07
DataValue, 3.75, 2.5716E-07
DataValue, 3.8000000000000003, 2.5844E-07
DataValue, 3.85, 2.6056E-07
DataValue, 3.9, 2.6208E-07
DataValue, 3.95, 2.6454E-07
DataValue, 4, 2.656E-07
DataValue, 4.05, 2.6724E-07
DataValue, 4.1, 2.7005999999999997E-07
DataValue, 4.15, 2.7158E-07
DataValue, 4.2, 2.7348E-07
DataValue, 4.25, 2.7242E-07
DataValue, 4.3, 2.7313999999999997E-07
DataValue, 4.3500000000000005, 2.7586E-07
DataValue, 4.4, 2.7624E-07
DataValue, 4.45, 2.767E-07
DataValue, 4.5, 2.782E-07
DataValue, 4.55, 2.791E-07
DataValue, 4.6000000000000005, 2.807E-07
DataValue, 4.65, 2.8146E-07
DataValue, 4.7, 2.8368E-07
DataValue, 4.75, 2.8499999999999997E-07
DataValue, 4.8, 2.8524E-07
DataValue, 4.8500000000000005, 2.839E-07
DataValue, 4.9, 2.8572E-07
DataValue, 4.95, 2.8807999999999997E-07
DataValue, 5, 2.8922E-07
DataValue, 5, 2.9042E-07
DataValue, 4.95, 2.8938E-07
DataValue, 4.9, 2.8684E-07
DataValue, 4.8500000000000005, 2.8862E-07
DataValue, 4.8, 2.8558E-07
DataValue, 4.75, 2.854E-07
DataValue, 4.7, 2.8218E-07
DataValue, 4.65, 2.8096E-07
DataValue, 4.6000000000000005, 2.8118E-07
DataValue, 4.55, 2.8016E-07
DataValue, 4.5, 2.794E-07
DataValue, 4.45, 2.7648E-07
DataValue, 4.4, 2.7652E-07
DataValue, 4.3500000000000005, 2.7404E-07
DataValue, 4.3, 2.7466E-07
DataValue, 4.25, 2.7372E-07
DataValue, 4.2, 2.7369999999999997E-07
DataValue, 4.15, 2.7172E-07
DataValue, 4.1, 2.7248E-07
DataValue, 4.05, 2.7106E-07
DataValue, 4, 2.7103999999999997E-07
DataValue, 3.95, 2.6788E-07
DataValue, 3.9, 2.6697999999999997E-07
DataValue, 3.85, 2.6658E-07
DataValue, 3.8000000000000003, 2.658E-07
DataValue, 3.75, 2.6599999999999997E-07
DataValue, 3.7, 2.6366E-07
DataValue, 3.65, 2.6166E-07
DataValue, 3.6, 2.6068E-07
DataValue, 3.5500000000000003, 2.5889999999999997E-07
DataValue, 3.5, 2.5544E-07
DataValue, 3.45, 2.5536E-07
DataValue, 3.4, 2.546E-07
DataValue, 3.35, 2.5364E-07
DataValue, 3.3000000000000003, 2.5119999999999997E-07
DataValue, 3.25, 2.5168E-07
DataValue, 3.2, 2.5182E-07
DataValue, 3.15, 2.4912E-07
DataValue, 3.1, 2.4812E-07
DataValue, 3.0500000000000003, 2.464E-07
DataValue, 3, 2.4662E-07
DataValue, 2.95, 2.4244E-07
DataValue, 2.9, 2.4518E-07
DataValue, 2.85, 2.4208E-07
DataValue, 2.8000000000000003, 2.3938E-07
DataValue, 2.75, 2.3836E-07
DataValue, 2.7, 2.368E-07
DataValue, 2.65, 2.3628E-07
DataValue, 2.6, 2.3374E-07
DataValue, 2.5500000000000003, 2.3213999999999999E-07
DataValue, 2.5, 2.3096E-07
DataValue, 2.45, 2.2921999999999998E-07
DataValue, 2.4, 2.269E-07
DataValue, 2.35, 2.2352E-07
DataValue, 2.3000000000000003, 2.2328E-07
DataValue, 2.25, 2.2228E-07
DataValue, 2.2, 2.2114E-07
DataValue, 2.15, 2.1788E-07
DataValue, 2.1, 2.1558E-07
DataValue, 2.05, 2.1539999999999998E-07
DataValue, 2, 2.1326E-07
DataValue, 1.95, 2.108E-07
DataValue, 1.9000000000000001, 2.1014E-07
DataValue, 1.85, 2.079E-07
DataValue, 1.8, 2.0654E-07
DataValue, 1.75, 2.051E-07
DataValue, 1.7, 2.0412E-07
DataValue, 1.6500000000000001, 2.018E-07
DataValue, 1.6, 1.9762E-07
DataValue, 1.55, 1.9555999999999999E-07
DataValue, 1.5, 1.946E-07
DataValue, 1.45, 1.9118E-07
DataValue, 1.4000000000000001, 1.8946E-07
DataValue, 1.35, 1.8759999999999999E-07
DataValue, 1.3, 1.8678E-07
DataValue, 1.25, 1.8646E-07
DataValue, 1.2, 1.8382E-07
DataValue, 1.1500000000000001, 1.7822E-07
DataValue, 1.1, 1.769E-07
DataValue, 1.05, 1.7517999999999998E-07
DataValue, 1, 1.7226E-07
DataValue, 0.95000000000000007, 1.6942E-07
DataValue, 0.9, 1.6758E-07
DataValue, 0.85, 1.6567999999999999E-07
DataValue, 0.8, 1.627E-07
DataValue, 0.75, 1.6026E-07
DataValue, 0.70000000000000007, 1.564E-07
DataValue, 0.65, 1.5462E-07
DataValue, 0.6, 1.5194E-07
DataValue, 0.55, 1.4947999999999999E-07
DataValue, 0.5, 1.463E-07
DataValue, 0.45, 1.4408E-07
DataValue, 0.4, 1.4218E-07
DataValue, 0.35000000000000003, 1.4204E-07
DataValue, 0.3, 1.3832E-07
DataValue, 0.25, 1.3458E-07
DataValue, 0.2, 1.3254E-07
DataValue, 0.15, 1.3144E-07
DataValue, 0.1, 1.2828E-07
DataValue, 0.05, 1.2524E-07
DataValue, 0, 1.2194E-07
DataValue, -0.05, 1.1926E-07
DataValue, -0.1, 1.1692E-07
DataValue, -0.15, 1.1518E-07
DataValue, -0.2, 1.1136E-07
DataValue, -0.25, 1.0908E-07
DataValue, -0.3, 1.0566E-07
DataValue, -0.35000000000000003, 1.0432E-07
DataValue, -0.4, 1.0122E-07
DataValue, -0.45, 9.7256399999999989E-08
DataValue, -0.5, 9.08578E-08
DataValue, -0.55, 8.7971799999999991E-08
DataValue, -0.6, 8.5453399999999986E-08
DataValue, -0.65, 8.3560799999999992E-08
DataValue, -0.70000000000000007, 7.7484399999999989E-08
DataValue, -0.75, 7.4760799999999993E-08
DataValue, -0.8, 7.182439999999999E-08
DataValue, -0.85, 7.0672799999999989E-08
DataValue, -0.9, 6.852139999999999E-08
DataValue, -0.95000000000000007, 6.48222E-08
DataValue, -1, 6.156439999999999E-08
DataValue, -1.05, 5.6849199999999993E-08
DataValue, -1.1, 5.4534999999999992E-08
DataValue, -1.1500000000000001, 5.3777799999999996E-08
DataValue, -1.2, 5.0559199999999994E-08
DataValue, -1.25, 4.7617999999999997E-08
DataValue, -1.3, 4.5289799999999993E-08
DataValue, -1.35, 4.3134599999999994E-08
DataValue, -1.4000000000000001, 3.9076199999999996E-08
DataValue, -1.45, 3.72588E-08
DataValue, -1.5, 3.38946E-08
DataValue, -1.55, 3.0066399999999995E-08
DataValue, -1.6, 2.8521399999999996E-08
DataValue, -1.6500000000000001, 2.7029599999999996E-08
DataValue, -1.7, 2.5220599999999996E-08
DataValue, -1.75, 2.4228199999999998E-08
DataValue, -1.8, 2.2716799999999997E-08
DataValue, -1.85, 2.01814E-08
DataValue, -1.9000000000000001, 1.80224E-08
DataValue, -1.95, 1.72344E-08
DataValue, -2, 1.4723399999999999E-08
DataValue, -2.05, 1.3738999999999998E-08
DataValue, -2.1, 1.2541799999999998E-08
DataValue, -2.15, 1.2760599999999999E-08
DataValue, -2.2, 1.1763599999999999E-08
DataValue, -2.25, 1.10228E-08
DataValue, -2.3000000000000003, 1.03518E-08
DataValue, -2.35, 9.6912E-09
DataValue, -2.4, 8.9586E-09
DataValue, -2.45, 9.3706E-09
DataValue, -2.5, 8.462E-09
DataValue, -2.5500000000000003, 6.8599E-09
DataValue, -2.6, 7.2846E-09
DataValue, -2.65, 6.6935E-09
DataValue, -2.7, 5.6196E-09
DataValue, -2.75, 5.512E-09
DataValue, -2.8000000000000003, 4.585E-09
DataValue, -2.85, 4.9275E-09
DataValue, -2.9, 4.3354E-09
DataValue, -2.95, 4.5732E-09
DataValue, -3, 4.1535E-09
DataValue, -3.0500000000000003, 3.9883E-09
DataValue, -3.1, 4.0652E-09
DataValue, -3.15, 3.5595E-09
DataValue, -3.2, 3.5509E-09
DataValue, -3.25, 3.1655E-09
DataValue, -3.3000000000000003, 3.1568E-09
DataValue, -3.35, 3.0032E-09
DataValue, -3.4, 3.1366E-09
DataValue, -3.45, 2.7561E-09
DataValue, -3.5, 2.3635E-09
DataValue, -3.5500000000000003, 2.2079E-09
DataValue, -3.6, 2.1649E-09
DataValue, -3.65, 1.9354E-09
DataValue, -3.7, 2.0132E-09
DataValue, -3.75, 1.9397E-09
DataValue, -3.8000000000000003, 1.9576E-09
DataValue, -3.85, 1.8858E-09
DataValue, -3.9, 1.8825E-09
DataValue, -3.95, 1.6953E-09
DataValue, -4, 1.7969E-09
DataValue, -4.05, 1.582E-09
DataValue, -4.1, 1.5412E-09
DataValue, -4.15, 1.4383E-09
DataValue, -4.2, 1.4335E-09
DataValue, -4.25, 1.3837E-09
DataValue, -4.3, 1.3175E-09
DataValue, -4.3500000000000005, 1.1976E-09
DataValue, -4.4, 1.219E-09
DataValue, -4.45, 1.2656E-09
DataValue, -4.5, 1.1562E-09
DataValue, -4.55, 1.1615E-09
DataValue, -4.6000000000000005, 1.0591E-09
DataValue, -4.65, 1.0885E-09
DataValue, -4.7, 1.1006E-09
DataValue, -4.75, 1.1705E-09
DataValue, -4.8, 1.0538E-09
DataValue, -4.8500000000000005, 1.0051E-09
DataValue, -4.9, 9.579E-10
DataValue, -4.95, 9.658E-10
DataValue, -5, 7.6271E-10
DataValue, -5, 6.1872E-09
DataValue, -4.95, 7.091E-09
