
SetupTitle, Transfer(1)
PrimitiveTest, I/V Sweep
TestParameter, Context.MainFrame, B1500A
TestParameter, Channel.UnitType, SMU, SMU
TestParameter, Channel.Unit, SMU1:HR, SMU2:HR
TestParameter, Channel.IName, Igs, Ids
TestParameter, Channel.VName, Vgs, Vds
TestParameter, Channel.Mode, V, V
TestParameter, Channel.Func, VAR1, VAR2
TestParameter, Channel.Index, 
TestParameter, Channel.Time, 
TestParameter, Measurement.Port.Unit, SMU1:HR, SMU2:HR
TestParameter, Measurement.Port.SeriesResistor, NONE, NONE
TestParameter, Measurement.Port.Filter, ON, ON
TestParameter, Measurement.Port.OutputVoltageComparison, 0, 0
TestParameter, Measurement.Primary.Locus, Double
TestParameter, Measurement.Primary.Scale, LINEAR
TestParameter, Measurement.Primary.Start, -5
TestParameter, Measurement.Primary.Stop, 5
TestParameter, Measurement.Primary.Step, 0.05
TestParameter, Measurement.Primary.Compliance, 0.05
TestParameter, Measurement.Primary.PowerCompliance, 0
TestParameter, Measurement.Aborting.Condition, STOP AT ANY ABNORMAL
TestParameter, Measurement.PostOutput.Value, START
TestParameter, Measurement.PostOutput.Retention, OFF
TestParameter, Measurement.Secondary.Start, 0.01
TestParameter, Measurement.Secondary.Count, 2
TestParameter, Measurement.Secondary.Step, 0.02
TestParameter, Measurement.Secondary.Compliance, 0.05
TestParameter, Measurement.Secondary.PowerCompliance, 0
TestParameter, Measurement.Bias.Source, -5, 0.01
TestParameter, Measurement.Bias.Compliance, 0.05, 0.05
TestParameter, Measurement.Monitor.Unit, SMU2:HR, SMU1:HR
TestParameter, Measurement.Monitor.Adc, HR ADC, HR ADC
TestParameter, Measurement.Monitor.Measurement, Compliance Side, Compliance Side
TestParameter, Measurement.Monitor.RangingMode, LIMITED, LIMITED
TestParameter, Measurement.Monitor.RangeBoundary, 100pA, 1nA
TestParameter, Measurement.Monitor.RangeRating, BY FULL RANGE, BY FULL RANGE
TestParameter, Measurement.Monitor.RangeRatingCoeff, 50, 50
TestParameter, Measurement.Timing.Hold, 0
TestParameter, Measurement.Timing.Delay, 0
TestParameter, Measurement.Adc.HighSpeed.Mode, AUTO
TestParameter, Measurement.Adc.HighSpeed.Coeff, 1
TestParameter, Measurement.Adc.HighResolution.AutoZero, OFF
TestParameter, Measurement.Adc.HighResolution.Mode, AUTO
TestParameter, Measurement.Adc.HighResolution.Coeff, 6
TestParameter, Measurement.WaitTime.Source.Coeff, 1
TestParameter, Measurement.WaitTime.Source.Offset, 0
TestParameter, Measurement.WaitTime.Monitor.Coeff, 1
TestParameter, Measurement.WaitTime.Monitor.Offset, 0
TestParameter, Output.Graph.Enabled, true
TestParameter, Output.Graph.AutoScaling, false
TestParameter, Output.Graph.XAxis.Data, Vgs
TestParameter, Output.Graph.XAxis.Scale, Linear
TestParameter, Output.Graph.XAxis.Left, -10
TestParameter, Output.Graph.XAxis.Right, 10
TestParameter, Output.Graph.XAxis.RunTimeAutoScale, true
TestParameter, Output.Graph.YAxis.Data, Ids
TestParameter, Output.Graph.YAxis.Scale, Linear
TestParameter, Output.Graph.YAxis.Bottom, -0.001
TestParameter, Output.Graph.YAxis.Top, 0.001
TestParameter, Output.Graph.YAxis.Group, 
TestParameter, Output.Graph.YAxis.RunTimeAutoScale, true
TestParameter, AutoAnalysis.Interpolation, false
TestParameter, AutoAnalysis.Line1.Enabled, false
TestParameter, AutoAnalysis.Line1.Type, 1
TestParameter, AutoAnalysis.Line1.Fix, True
TestParameter, AutoAnalysis.Line1.YAxis, 0
TestParameter, AutoAnalysis.Line1.Point1.Type, 0
TestParameter, AutoAnalysis.Line1.Point1.XY.X, 
TestParameter, AutoAnalysis.Line1.Point1.XY.Y, 
TestParameter, AutoAnalysis.Line1.Point1.Data.Var, 
TestParameter, AutoAnalysis.Line1.Point1.Data.Condition, 
TestParameter, AutoAnalysis.Line1.Point1.Data.Start, false
TestParameter, AutoAnalysis.Line1.Point1.Data.StartVar, 
TestParameter, AutoAnalysis.Line1.Point1.Data.StartCondition, 
TestParameter, AutoAnalysis.Line1.Point2.Type, 0
TestParameter, AutoAnalysis.Line1.Point2.XY.X, 
TestParameter, AutoAnalysis.Line1.Point2.XY.Y, 
TestParameter, AutoAnalysis.Line1.Point2.Data.Var, 
TestParameter, AutoAnalysis.Line1.Point2.Data.Condition, 
TestParameter, AutoAnalysis.Line1.Point2.Data.Start, false
TestParameter, AutoAnalysis.Line1.Point2.Data.StartVar, 
TestParameter, AutoAnalysis.Line1.Point2.Data.StartCondition, 
TestParameter, AutoAnalysis.Line1.GradientExpr, 0
TestParameter, AutoAnalysis.Line2.Enabled, false
TestParameter, AutoAnalysis.Line2.Type, 1
TestParameter, AutoAnalysis.Line2.Fix, True
TestParameter, AutoAnalysis.Line2.YAxis, 0
TestParameter, AutoAnalysis.Line2.Point1.Type, 0
TestParameter, AutoAnalysis.Line2.Point1.XY.X, 
TestParameter, AutoAnalysis.Line2.Point1.XY.Y, 
TestParameter, AutoAnalysis.Line2.Point1.Data.Var, 
TestParameter, AutoAnalysis.Line2.Point1.Data.Condition, 
TestParameter, AutoAnalysis.Line2.Point1.Data.Start, false
TestParameter, AutoAnalysis.Line2.Point1.Data.StartVar, 
TestParameter, AutoAnalysis.Line2.Point1.Data.StartCondition, 
TestParameter, AutoAnalysis.Line2.Point2.Type, 0
TestParameter, AutoAnalysis.Line2.Point2.XY.X, 
TestParameter, AutoAnalysis.Line2.Point2.XY.Y, 
TestParameter, AutoAnalysis.Line2.Point2.Data.Var, 
TestParameter, AutoAnalysis.Line2.Point2.Data.Condition, 
TestParameter, AutoAnalysis.Line2.Point2.Data.Start, false
TestParameter, AutoAnalysis.Line2.Point2.Data.StartVar, 
TestParameter, AutoAnalysis.Line2.Point2.Data.StartCondition, 
TestParameter, AutoAnalysis.Line2.GradientExpr, 0
TestParameter, AutoAnalysis.Marker.Enabled, false
TestParameter, AutoAnalysis.Marker.Data.Var, 
TestParameter, AutoAnalysis.Marker.Data.Condition, 
TestParameter, AutoAnalysis.Marker.Data.Start, false
TestParameter, AutoAnalysis.Marker.Data.StartVar, 
TestParameter, AutoAnalysis.Marker.Data.StartCondition, 
MetaData, TestRecord.EntryPoint, true
MetaData, TestRecord.RecordTime, 07/21/2020 18:27:00
MetaData, TestRecord.TestTarget, 0407c56
MetaData, TestRecord.IterationIndex, 7
MetaData, TestRecord.Preservation, true
MetaData, TestRecord.Flag, 
MetaData, TestRecord.Remarks, 
MetaData, TestRecord.LinkKey, e33f2fea-6642-43c0-bd29-0912f6efd998
Dimension1, 402, 402
Dimension2, 2, 2
DataName, Vgs, Ids
DataValue, -5, 5.8578E-10
DataValue, -4.95, 4.913E-10
DataValue, -4.9, 5.1616E-10
DataValue, -4.8500000000000005, 5.9465E-10
DataValue, -4.8, 6.5093E-10
DataValue, -4.75, 7.4926000000000006E-10
DataValue, -4.7, 7.5673E-10
DataValue, -4.65, 9.438E-10
DataValue, -4.6000000000000005, 8.3852E-10
DataValue, -4.55, 1.02326E-09
DataValue, -4.5, 1.1905E-09
DataValue, -4.45, 1.2192E-09
DataValue, -4.4, 1.2643E-09
DataValue, -4.3500000000000005, 1.2895E-09
DataValue, -4.3, 1.4973E-09
DataValue, -4.25, 1.5286E-09
DataValue, -4.2, 1.8683E-09
DataValue, -4.15, 1.9205E-09
DataValue, -4.1, 2.3281E-09
DataValue, -4.05, 2.1995E-09
DataValue, -4, 2.5948E-09
DataValue, -3.95, 2.8787E-09
DataValue, -3.9, 3.2478E-09
DataValue, -3.85, 3.4111E-09
DataValue, -3.8000000000000003, 3.5619E-09
DataValue, -3.75, 3.8435E-09
DataValue, -3.7, 4.4484E-09
DataValue, -3.65, 5.0311E-09
DataValue, -3.6, 5.6221E-09
DataValue, -3.5500000000000003, 6.2478E-09
DataValue, -3.5, 7.087E-09
DataValue, -3.45, 7.9664E-09
DataValue, -3.4, 9.7312E-09
DataValue, -3.35, 1.06357E-08
DataValue, -3.3000000000000003, 1.04378E-08
DataValue, -3.25, 1.3608799999999999E-08
DataValue, -3.2, 1.4747799999999998E-08
DataValue, -3.15, 1.6980199999999998E-08
DataValue, -3.1, 1.8510399999999997E-08
DataValue, -3.0500000000000003, 2.0343E-08
DataValue, -3, 2.17008E-08
DataValue, -2.95, 2.4324999999999998E-08
DataValue, -2.9, 2.5784599999999997E-08
DataValue, -2.85, 2.8937999999999997E-08
DataValue, -2.8000000000000003, 2.9963599999999994E-08
DataValue, -2.75, 3.2389399999999995E-08
DataValue, -2.7, 3.2738399999999994E-08
DataValue, -2.65, 3.56396E-08
DataValue, -2.6, 3.9319599999999996E-08
DataValue, -2.5500000000000003, 4.15222E-08
DataValue, -2.5, 4.4497199999999996E-08
DataValue, -2.45, 4.9461599999999995E-08
DataValue, -2.4, 5.1960199999999994E-08
DataValue, -2.35, 5.64316E-08
DataValue, -2.3000000000000003, 6.12104E-08
DataValue, -2.25, 6.48046E-08
DataValue, -2.2, 6.6876E-08
DataValue, -2.15, 7.0069999999999992E-08
DataValue, -2.1, 7.3641999999999992E-08
DataValue, -2.05, 7.8386799999999988E-08
DataValue, -2, 8.3430999999999988E-08
DataValue, -1.95, 8.764599999999999E-08
DataValue, -1.9000000000000001, 9.2652199999999986E-08
DataValue, -1.85, 9.770039999999999E-08
DataValue, -1.8, 1.0051799999999999E-07
DataValue, -1.75, 1.0387339999999999E-07
DataValue, -1.7, 1.1054899999999999E-07
DataValue, -1.6500000000000001, 1.1415119999999999E-07
DataValue, -1.6, 1.2386E-07
DataValue, -1.55, 1.289E-07
DataValue, -1.5, 1.3104E-07
DataValue, -1.45, 1.3746E-07
DataValue, -1.4000000000000001, 1.414E-07
DataValue, -1.35, 1.4186E-07
DataValue, -1.3, 1.48E-07
DataValue, -1.25, 1.5458E-07
DataValue, -1.2, 1.6182E-07
DataValue, -1.1500000000000001, 1.6612E-07
DataValue, -1.1, 1.7492E-07
DataValue, -1.05, 1.8192E-07
DataValue, -1, 1.8702E-07
DataValue, -0.95000000000000007, 1.907E-07
DataValue, -0.9, 1.9726E-07
DataValue, -0.85, 2.0622E-07
DataValue, -0.8, 2.1172E-07
DataValue, -0.75, 2.1648E-07
DataValue, -0.70000000000000007, 2.2454E-07
DataValue, -0.65, 2.3068E-07
DataValue, -0.6, 2.3848E-07
DataValue, -0.55, 2.4854E-07
DataValue, -0.5, 2.5455999999999997E-07
DataValue, -0.45, 2.6276E-07
DataValue, -0.4, 2.6842E-07
DataValue, -0.35000000000000003, 2.7758E-07
DataValue, -0.3, 2.8247999999999997E-07
DataValue, -0.25, 2.9143999999999997E-07
DataValue, -0.2, 2.9615999999999997E-07
DataValue, -0.15, 3.0422E-07
DataValue, -0.1, 3.1193999999999997E-07
DataValue, -0.05, 3.1958E-07
DataValue, 0, 3.2336E-07
DataValue, 0.05, 3.304E-07
DataValue, 0.1, 3.382E-07
DataValue, 0.15, 3.4368E-07
DataValue, 0.2, 3.4878E-07
DataValue, 0.25, 3.5636E-07
DataValue, 0.3, 3.6408E-07
DataValue, 0.35000000000000003, 3.6812E-07
DataValue, 0.4, 3.7477999999999997E-07
DataValue, 0.45, 3.8088E-07
DataValue, 0.5, 3.8796E-07
DataValue, 0.55, 3.9526E-07
DataValue, 0.6, 4.0126E-07
DataValue, 0.65, 4.088E-07
DataValue, 0.70000000000000007, 4.1445999999999997E-07
DataValue, 0.75, 4.1903999999999997E-07
DataValue, 0.8, 4.2608E-07
DataValue, 0.85, 4.2906E-07
DataValue, 0.9, 4.3696E-07
DataValue, 0.95000000000000007, 4.4008E-07
DataValue, 1, 4.482E-07
DataValue, 1.05, 4.54E-07
DataValue, 1.1, 4.5798E-07
DataValue, 1.1500000000000001, 4.6406E-07
DataValue, 1.2, 4.7126E-07
DataValue, 1.25, 4.7638E-07
DataValue, 1.3, 4.8042E-07
DataValue, 1.35, 4.8688E-07
DataValue, 1.4000000000000001, 4.9252E-07
DataValue, 1.45, 4.9888E-07
DataValue, 1.5, 5.0512E-07
DataValue, 1.55, 5.0916E-07
DataValue, 1.6, 5.1527999999999994E-07
DataValue, 1.6500000000000001, 5.1898E-07
DataValue, 1.7, 5.2496E-07
DataValue, 1.75, 5.307E-07
DataValue, 1.8, 5.3346E-07
DataValue, 1.85, 5.3572E-07
DataValue, 1.9000000000000001, 5.4128E-07
DataValue, 1.95, 5.4578E-07
DataValue, 2, 5.511E-07
DataValue, 2.05, 5.5598E-07
DataValue, 2.1, 5.6042E-07
DataValue, 2.15, 5.653E-07
DataValue, 2.2, 5.6653999999999994E-07
DataValue, 2.25, 5.723E-07
DataValue, 2.3000000000000003, 5.7702E-07
DataValue, 2.35, 5.8178E-07
DataValue, 2.4, 5.846E-07
DataValue, 2.45, 5.9202E-07
DataValue, 2.5, 5.9492E-07
DataValue, 2.5500000000000003, 5.983E-07
DataValue, 2.6, 6.0508E-07
DataValue, 2.65, 6.096E-07
DataValue, 2.7, 6.157E-07
DataValue, 2.75, 6.1922E-07
DataValue, 2.8000000000000003, 6.2452E-07
DataValue, 2.85, 6.2722E-07
DataValue, 2.9, 6.3268E-07
DataValue, 2.95, 6.3456E-07
DataValue, 3, 6.3918E-07
DataValue, 3.0500000000000003, 6.4357999999999994E-07
DataValue, 3.1, 6.4688E-07
DataValue, 3.15, 6.5152E-07
DataValue, 3.2, 6.568E-07
DataValue, 3.25, 6.5897999999999994E-07
DataValue, 3.3000000000000003, 6.6532E-07
DataValue, 3.35, 6.6868E-07
DataValue, 3.4, 6.732E-07
DataValue, 3.45, 6.758E-07
DataValue, 3.5, 6.7818E-07
DataValue, 3.5500000000000003, 6.8482E-07
DataValue, 3.6, 6.867E-07
DataValue, 3.65, 6.9137999999999993E-07
DataValue, 3.7, 6.9432E-07
DataValue, 3.75, 6.9997999999999995E-07
DataValue, 3.8000000000000003, 7.0378E-07
DataValue, 3.85, 7.07E-07
DataValue, 3.9, 7.0753999999999994E-07
DataValue, 3.95, 7.0827999999999993E-07
DataValue, 4, 7.1394E-07
DataValue, 4.05, 7.1932E-07
DataValue, 4.1, 7.2148E-07
DataValue, 4.15, 7.2466E-07
DataValue, 4.2, 7.273E-07
DataValue, 4.25, 7.2962E-07
DataValue, 4.3, 7.3178E-07
DataValue, 4.3500000000000005, 7.3412E-07
DataValue, 4.4, 7.383E-07
DataValue, 4.45, 7.4318E-07
DataValue, 4.5, 7.4637999999999994E-07
DataValue, 4.55, 7.4696E-07
DataValue, 4.6000000000000005, 7.4888E-07
DataValue, 4.65, 7.5126E-07
DataValue, 4.7, 7.568E-07
DataValue, 4.75, 7.5861999999999995E-07
DataValue, 4.8, 7.639E-07
DataValue, 4.8500000000000005, 7.6598E-07
DataValue, 4.9, 7.6858E-07
DataValue, 4.95, 7.7156E-07
DataValue, 5, 7.7484E-07
DataValue, 5, 7.7396E-07
DataValue, 4.95, 7.7062E-07
DataValue, 4.9, 7.7194E-07
DataValue, 4.8500000000000005, 7.712E-07
DataValue, 4.8, 7.67E-07
DataValue, 4.75, 7.6764E-07
DataValue, 4.7, 7.6812E-07
DataValue, 4.65, 7.6644E-07
DataValue, 4.6000000000000005, 7.621E-07
DataValue, 4.55, 7.6326E-07
DataValue, 4.5, 7.5838E-07
DataValue, 4.45, 7.5442E-07
DataValue, 4.4, 7.521E-07
DataValue, 4.3500000000000005, 7.5056E-07
DataValue, 4.3, 7.507E-07
DataValue, 4.25, 7.4634E-07
DataValue, 4.2, 7.463E-07
DataValue, 4.15, 7.4454E-07
DataValue, 4.1, 7.4105999999999994E-07
DataValue, 4.05, 7.3488E-07
DataValue, 4, 7.3216E-07
DataValue, 3.95, 7.2975999999999994E-07
DataValue, 3.9, 7.2364E-07
DataValue, 3.85, 7.2206E-07
DataValue, 3.8000000000000003, 7.197E-07
DataValue, 3.75, 7.1274E-07
DataValue, 3.7, 7.1226E-07
DataValue, 3.65, 7.0883999999999993E-07
DataValue, 3.6, 7.0575999999999994E-07
DataValue, 3.5500000000000003, 7.036E-07
DataValue, 3.5, 6.974E-07
DataValue, 3.45, 6.944E-07
DataValue, 3.4, 6.9014E-07
DataValue, 3.35, 6.8244E-07
DataValue, 3.3000000000000003, 6.8008E-07
DataValue, 3.25, 6.7618E-07
DataValue, 3.2, 6.7136E-07
DataValue, 3.15, 6.7132E-07
DataValue, 3.1, 6.6764E-07
DataValue, 3.0500000000000003, 6.625E-07
DataValue, 3, 6.5826E-07
DataValue, 2.95, 6.53E-07
DataValue, 2.9, 6.4742E-07
DataValue, 2.85, 6.4524E-07
DataValue, 2.8000000000000003, 6.4116E-07
DataValue, 2.75, 6.3675999999999994E-07
DataValue, 2.7, 6.3198E-07
DataValue, 2.65, 6.2723999999999994E-07
DataValue, 2.6, 6.2396E-07
DataValue, 2.5500000000000003, 6.2078E-07
DataValue, 2.5, 6.1694E-07
DataValue, 2.45, 6.0722E-07
DataValue, 2.4, 6.0496E-07
DataValue, 2.35, 5.9962E-07
DataValue, 2.3000000000000003, 5.9304E-07
DataValue, 2.25, 5.8628E-07
DataValue, 2.2, 5.8297999999999994E-07
DataValue, 2.15, 5.7772E-07
DataValue, 2.1, 5.7206E-07
DataValue, 2.05, 5.6551999999999994E-07
DataValue, 2, 5.603E-07
DataValue, 1.95, 5.5456E-07
DataValue, 1.9000000000000001, 5.4802E-07
DataValue, 1.85, 5.4278E-07
DataValue, 1.8, 5.3942E-07
DataValue, 1.75, 5.3216E-07
DataValue, 1.7, 5.2806E-07
DataValue, 1.6500000000000001, 5.2382E-07
DataValue, 1.6, 5.1924E-07
DataValue, 1.55, 5.118E-07
DataValue, 1.5, 5.0575999999999994E-07
DataValue, 1.45, 5.0018E-07
DataValue, 1.4000000000000001, 4.9564E-07
DataValue, 1.35, 4.9E-07
DataValue, 1.3, 4.8418E-07
DataValue, 1.25, 4.7772E-07
DataValue, 1.2, 4.7239999999999997E-07
DataValue, 1.1500000000000001, 4.6546E-07
DataValue, 1.1, 4.6034E-07
DataValue, 1.05, 4.5395999999999997E-07
DataValue, 1, 4.4933999999999997E-07
DataValue, 0.95000000000000007, 4.42E-07
DataValue, 0.9, 4.3588E-07
DataValue, 0.85, 4.3022E-07
DataValue, 0.8, 4.236E-07
DataValue, 0.75, 4.1786E-07
DataValue, 0.70000000000000007, 4.1128E-07
DataValue, 0.65, 4.0465999999999997E-07
DataValue, 0.6, 4.0052E-07
DataValue, 0.55, 3.9236E-07
DataValue, 0.5, 3.8476E-07
DataValue, 0.45, 3.7764E-07
DataValue, 0.4, 3.7028E-07
DataValue, 0.35000000000000003, 3.6442E-07
DataValue, 0.3, 3.5644E-07
DataValue, 0.25, 3.5E-07
DataValue, 0.2, 3.4558E-07
DataValue, 0.15, 3.3848E-07
DataValue, 0.1, 3.3037999999999997E-07
DataValue, 0.05, 3.2238E-07
DataValue, 0, 3.1333999999999997E-07
DataValue, -0.05, 3.0702E-07
DataValue, -0.1, 3.0066E-07
DataValue, -0.15, 2.9268E-07
DataValue, -0.2, 2.8418E-07
DataValue, -0.25, 2.7654E-07
DataValue, -0.3, 2.6748E-07
DataValue, -0.35000000000000003, 2.5952E-07
DataValue, -0.4, 2.4934E-07
DataValue, -0.45, 2.4E-07
DataValue, -0.5, 2.3234E-07
DataValue, -0.55, 2.237E-07
DataValue, -0.6, 2.1688E-07
DataValue, -0.65, 2.0778E-07
DataValue, -0.70000000000000007, 2.0477999999999999E-07
DataValue, -0.75, 1.9039999999999998E-07
DataValue, -0.8, 1.827E-07
DataValue, -0.85, 1.8154E-07
DataValue, -0.9, 1.6884E-07
DataValue, -0.95000000000000007, 1.6088E-07
DataValue, -1, 1.5416E-07
DataValue, -1.05, 1.5024E-07
DataValue, -1.1, 1.399E-07
DataValue, -1.1500000000000001, 1.3198E-07
DataValue, -1.2, 1.2886E-07
DataValue, -1.25, 1.1992E-07
DataValue, -1.3, 1.124E-07
DataValue, -1.35, 1.0884E-07
DataValue, -1.4000000000000001, 1.0662E-07
DataValue, -1.45, 1.0052E-07
DataValue, -1.5, 9.3498799999999985E-08
DataValue, -1.55, 8.8108799999999988E-08
DataValue, -1.6, 8.37072E-08
DataValue, -1.6500000000000001, 7.8315799999999987E-08
DataValue, -1.7, 7.2374399999999992E-08
DataValue, -1.75, 6.7660599999999991E-08
DataValue, -1.8, 6.4388399999999989E-08
DataValue, -1.85, 5.98498E-08
DataValue, -1.9000000000000001, 5.4589999999999994E-08
DataValue, -1.95, 5.2687999999999995E-08
DataValue, -2, 4.9171799999999994E-08
DataValue, -2.05, 4.5583399999999994E-08
DataValue, -2.1, 4.1837799999999996E-08
DataValue, -2.15, 3.94764E-08
DataValue, -2.2, 3.6992E-08
DataValue, -2.25, 3.60398E-08
DataValue, -2.3000000000000003, 3.07748E-08
DataValue, -2.35, 2.8937399999999998E-08
DataValue, -2.4, 2.6334799999999996E-08
DataValue, -2.45, 2.3115599999999998E-08
DataValue, -2.5, 2.1963399999999998E-08
DataValue, -2.5500000000000003, 2.2617999999999998E-08
DataValue, -2.6, 2.0717999999999997E-08
DataValue, -2.65, 1.78436E-08
DataValue, -2.7, 1.5219E-08
DataValue, -2.75, 1.40666E-08
DataValue, -2.8000000000000003, 1.2575399999999999E-08
DataValue, -2.85, 1.2652399999999998E-08
DataValue, -2.9, 1.12794E-08
DataValue, -2.95, 1.0151E-08
DataValue, -3, 8.4737E-09
DataValue, -3.0500000000000003, 7.8764E-09
DataValue, -3.1, 7.8897E-09
DataValue, -3.15, 7.6065E-09
DataValue, -3.2, 7.0439E-09
DataValue, -3.25, 6.6623E-09
DataValue, -3.3000000000000003, 5.7043E-09
DataValue, -3.35, 5.0778E-09
DataValue, -3.4, 4.746E-09
DataValue, -3.45, 4.3329E-09
DataValue, -3.5, 4.012E-09
DataValue, -3.5500000000000003, 3.64E-09
DataValue, -3.6, 3.2776E-09
DataValue, -3.65, 3.1449E-09
DataValue, -3.7, 2.8127E-09
DataValue, -3.75, 2.6824E-09
DataValue, -3.8000000000000003, 2.418E-09
DataValue, -3.85, 2.1804E-09
DataValue, -3.9, 2.0954E-09
DataValue, -3.95, 1.991E-09
DataValue, -4, 1.8908E-09
DataValue, -4.05, 1.7007E-09
DataValue, -4.1, 1.7782E-09
DataValue, -4.15, 1.5095E-09
DataValue, -4.2, 1.4907E-09
DataValue, -4.25, 1.3766E-09
DataValue, -4.3, 1.3368E-09
DataValue, -4.3500000000000005, 1.3133E-09
DataValue, -4.4, 1.2607E-09
DataValue, -4.45, 1.1037E-09
DataValue, -4.5, 1.1161E-09
DataValue, -4.55, 1.0755E-09
DataValue, -4.6000000000000005, 1.0263E-09
DataValue, -4.65, 1.0048E-09
DataValue, -4.7, 1.0156E-09
DataValue, -4.75, 1.0108E-09
DataValue, -4.8, 8.0509000000000006E-10
DataValue, -4.8500000000000005, 8.045400000000001E-10
DataValue, -4.9, 8.1294000000000009E-10
DataValue, -4.95, 7.2414E-10
DataValue, -5, 7.1102000000000009E-10
DataValue, -5, 4.0306E-09
DataValue, -4.95, 4.9663E-09
DataValue, -4.9, 5.4376E-09
DataValue, -4.8500000000000005, 5.1461E-09
DataValue, -4.8, 4.8029E-09
DataValue, -4.75, 5.794E-09
DataValue, -4.7, 6.3774E-09
DataValue, -4.65, 6.6426E-09
