
SetupTitle, Transfer(1)
PrimitiveTest, I/V Sweep
TestParameter, Context.MainFrame, B1500A
TestParameter, Channel.UnitType, SMU, SMU
TestParameter, Channel.Unit, SMU1:HR, SMU2:HR
TestParameter, Channel.IName, Igs, Ids
TestParameter, Channel.VName, Vgs, Vds
TestParameter, Channel.Mode, V, V
TestParameter, Channel.Func, VAR1, VAR2
TestParameter, Channel.Index, 
TestParameter, Channel.Time, 
TestParameter, Measurement.Port.Unit, SMU1:HR, SMU2:HR
TestParameter, Measurement.Port.SeriesResistor, NONE, NONE
TestParameter, Measurement.Port.Filter, ON, ON
TestParameter, Measurement.Port.OutputVoltageComparison, 0, 0
TestParameter, Measurement.Primary.Locus, Double
TestParameter, Measurement.Primary.Scale, LINEAR
TestParameter, Measurement.Primary.Start, -5
TestParameter, Measurement.Primary.Stop, 5
TestParameter, Measurement.Primary.Step, 0.05
TestParameter, Measurement.Primary.Compliance, 0.05
TestParameter, Measurement.Primary.PowerCompliance, 0
TestParameter, Measurement.Aborting.Condition, STOP AT ANY ABNORMAL
TestParameter, Measurement.PostOutput.Value, START
TestParameter, Measurement.PostOutput.Retention, OFF
TestParameter, Measurement.Secondary.Start, 0.01
TestParameter, Measurement.Secondary.Count, 2
TestParameter, Measurement.Secondary.Step, 0.02
TestParameter, Measurement.Secondary.Compliance, 0.05
TestParameter, Measurement.Secondary.PowerCompliance, 0
TestParameter, Measurement.Bias.Source, -5, 0.01
TestParameter, Measurement.Bias.Compliance, 0.05, 0.05
TestParameter, Measurement.Monitor.Unit, SMU2:HR, SMU1:HR
TestParameter, Measurement.Monitor.Adc, HR ADC, HR ADC
TestParameter, Measurement.Monitor.Measurement, Compliance Side, Compliance Side
TestParameter, Measurement.Monitor.RangingMode, LIMITED, LIMITED
TestParameter, Measurement.Monitor.RangeBoundary, 100pA, 1nA
TestParameter, Measurement.Monitor.RangeRating, BY FULL RANGE, BY FULL RANGE
TestParameter, Measurement.Monitor.RangeRatingCoeff, 50, 50
TestParameter, Measurement.Timing.Hold, 0
TestParameter, Measurement.Timing.Delay, 0
TestParameter, Measurement.Adc.HighSpeed.Mode, AUTO
TestParameter, Measurement.Adc.HighSpeed.Coeff, 1
TestParameter, Measurement.Adc.HighResolution.AutoZero, OFF
TestParameter, Measurement.Adc.HighResolution.Mode, AUTO
TestParameter, Measurement.Adc.HighResolution.Coeff, 6
TestParameter, Measurement.WaitTime.Source.Coeff, 1
TestParameter, Measurement.WaitTime.Source.Offset, 0
TestParameter, Measurement.WaitTime.Monitor.Coeff, 1
TestParameter, Measurement.WaitTime.Monitor.Offset, 0
TestParameter, Output.Graph.Enabled, true
TestParameter, Output.Graph.AutoScaling, false
TestParameter, Output.Graph.XAxis.Data, Vgs
TestParameter, Output.Graph.XAxis.Scale, Linear
TestParameter, Output.Graph.XAxis.Left, -10
TestParameter, Output.Graph.XAxis.Right, 10
TestParameter, Output.Graph.XAxis.RunTimeAutoScale, true
TestParameter, Output.Graph.YAxis.Data, Ids
TestParameter, Output.Graph.YAxis.Scale, Linear
TestParameter, Output.Graph.YAxis.Bottom, -0.001
TestParameter, Output.Graph.YAxis.Top, 0.001
TestParameter, Output.Graph.YAxis.Group, 
TestParameter, Output.Graph.YAxis.RunTimeAutoScale, true
TestParameter, AutoAnalysis.Interpolation, false
TestParameter, AutoAnalysis.Line1.Enabled, false
TestParameter, AutoAnalysis.Line1.Type, 1
TestParameter, AutoAnalysis.Line1.Fix, True
TestParameter, AutoAnalysis.Line1.YAxis, 0
TestParameter, AutoAnalysis.Line1.Point1.Type, 0
TestParameter, AutoAnalysis.Line1.Point1.XY.X, 
TestParameter, AutoAnalysis.Line1.Point1.XY.Y, 
TestParameter, AutoAnalysis.Line1.Point1.Data.Var, 
TestParameter, AutoAnalysis.Line1.Point1.Data.Condition, 
TestParameter, AutoAnalysis.Line1.Point1.Data.Start, false
TestParameter, AutoAnalysis.Line1.Point1.Data.StartVar, 
TestParameter, AutoAnalysis.Line1.Point1.Data.StartCondition, 
TestParameter, AutoAnalysis.Line1.Point2.Type, 0
TestParameter, AutoAnalysis.Line1.Point2.XY.X, 
TestParameter, AutoAnalysis.Line1.Point2.XY.Y, 
TestParameter, AutoAnalysis.Line1.Point2.Data.Var, 
TestParameter, AutoAnalysis.Line1.Point2.Data.Condition, 
TestParameter, AutoAnalysis.Line1.Point2.Data.Start, false
TestParameter, AutoAnalysis.Line1.Point2.Data.StartVar, 
TestParameter, AutoAnalysis.Line1.Point2.Data.StartCondition, 
TestParameter, AutoAnalysis.Line1.GradientExpr, 0
TestParameter, AutoAnalysis.Line2.Enabled, false
TestParameter, AutoAnalysis.Line2.Type, 1
TestParameter, AutoAnalysis.Line2.Fix, True
TestParameter, AutoAnalysis.Line2.YAxis, 0
TestParameter, AutoAnalysis.Line2.Point1.Type, 0
TestParameter, AutoAnalysis.Line2.Point1.XY.X, 
TestParameter, AutoAnalysis.Line2.Point1.XY.Y, 
TestParameter, AutoAnalysis.Line2.Point1.Data.Var, 
TestParameter, AutoAnalysis.Line2.Point1.Data.Condition, 
TestParameter, AutoAnalysis.Line2.Point1.Data.Start, false
TestParameter, AutoAnalysis.Line2.Point1.Data.StartVar, 
TestParameter, AutoAnalysis.Line2.Point1.Data.StartCondition, 
TestParameter, AutoAnalysis.Line2.Point2.Type, 0
TestParameter, AutoAnalysis.Line2.Point2.XY.X, 
TestParameter, AutoAnalysis.Line2.Point2.XY.Y, 
TestParameter, AutoAnalysis.Line2.Point2.Data.Var, 
TestParameter, AutoAnalysis.Line2.Point2.Data.Condition, 
TestParameter, AutoAnalysis.Line2.Point2.Data.Start, false
TestParameter, AutoAnalysis.Line2.Point2.Data.StartVar, 
TestParameter, AutoAnalysis.Line2.Point2.Data.StartCondition, 
TestParameter, AutoAnalysis.Line2.GradientExpr, 0
TestParameter, AutoAnalysis.Marker.Enabled, false
TestParameter, AutoAnalysis.Marker.Data.Var, 
TestParameter, AutoAnalysis.Marker.Data.Condition, 
TestParameter, AutoAnalysis.Marker.Data.Start, false
TestParameter, AutoAnalysis.Marker.Data.StartVar, 
TestParameter, AutoAnalysis.Marker.Data.StartCondition, 
MetaData, TestRecord.EntryPoint, true
MetaData, TestRecord.RecordTime, 07/21/2020 18:57:14
MetaData, TestRecord.TestTarget, 0407c56
MetaData, TestRecord.IterationIndex, 20
MetaData, TestRecord.Preservation, true
MetaData, TestRecord.Flag, 
MetaData, TestRecord.Remarks, 
MetaData, TestRecord.LinkKey, 371f5cff-2e04-4870-a283-053e01047c4e
Dimension1, 402, 402
Dimension2, 2, 2
DataName, Vgs, Ids
DataValue, -5, 1.831E-09
DataValue, -4.95, 2.1792E-09
DataValue, -4.9, 2.1341E-09
DataValue, -4.8500000000000005, 2.1905E-09
DataValue, -4.8, 2.2155E-09
DataValue, -4.75, 2.2507E-09
DataValue, -4.7, 2.5486E-09
DataValue, -4.65, 2.4403E-09
DataValue, -4.6000000000000005, 2.7528E-09
DataValue, -4.55, 2.7692E-09
DataValue, -4.5, 2.781E-09
DataValue, -4.45, 2.8744E-09
DataValue, -4.4, 3.1085E-09
DataValue, -4.3500000000000005, 3.2348E-09
DataValue, -4.3, 3.2088E-09
DataValue, -4.25, 3.26E-09
DataValue, -4.2, 3.2577E-09
DataValue, -4.15, 3.7869E-09
DataValue, -4.1, 3.9138E-09
DataValue, -4.05, 4.3242E-09
DataValue, -4, 3.9347E-09
DataValue, -3.95, 4.0624E-09
DataValue, -3.9, 4.1152E-09
DataValue, -3.85, 4.5101999999999996E-09
DataValue, -3.8000000000000003, 4.9449E-09
DataValue, -3.75, 5.2947E-09
DataValue, -3.7, 6.0674E-09
DataValue, -3.65, 6.0213E-09
DataValue, -3.6, 6.0485E-09
DataValue, -3.5500000000000003, 6.3586E-09
DataValue, -3.5, 6.5935E-09
DataValue, -3.45, 6.7863E-09
DataValue, -3.4, 7.6717E-09
DataValue, -3.35, 7.7842E-09
DataValue, -3.3000000000000003, 8.085E-09
DataValue, -3.25, 8.8865E-09
DataValue, -3.2, 9.6091E-09
DataValue, -3.15, 1.03041E-08
DataValue, -3.1, 1.02307E-08
DataValue, -3.0500000000000003, 1.2928399999999999E-08
DataValue, -3, 1.2741399999999998E-08
DataValue, -2.95, 1.5407799999999997E-08
DataValue, -2.9, 1.5890599999999998E-08
DataValue, -2.85, 1.7919999999999998E-08
DataValue, -2.8000000000000003, 1.7490199999999997E-08
DataValue, -2.75, 1.9472799999999998E-08
DataValue, -2.7, 2.07816E-08
DataValue, -2.65, 2.0914399999999996E-08
DataValue, -2.6, 2.2129E-08
DataValue, -2.5500000000000003, 2.4701199999999998E-08
DataValue, -2.5, 2.38524E-08
DataValue, -2.45, 2.5645199999999997E-08
DataValue, -2.4, 2.8778999999999996E-08
DataValue, -2.35, 2.9455599999999997E-08
DataValue, -2.3000000000000003, 3.1360799999999995E-08
DataValue, -2.25, 3.4440599999999995E-08
DataValue, -2.2, 3.5865E-08
DataValue, -2.15, 3.8335399999999994E-08
DataValue, -2.1, 4.0337E-08
DataValue, -2.05, 4.32578E-08
DataValue, -2, 4.4707799999999995E-08
DataValue, -1.95, 4.7689E-08
DataValue, -1.9000000000000001, 5.0104799999999993E-08
DataValue, -1.85, 5.2724599999999996E-08
DataValue, -1.8, 5.6593599999999995E-08
DataValue, -1.75, 6.3954999999999993E-08
DataValue, -1.7, 6.521299999999999E-08
DataValue, -1.6500000000000001, 7.03824E-08
DataValue, -1.6, 7.3478199999999989E-08
DataValue, -1.55, 8.02248E-08
DataValue, -1.5, 8.47112E-08
DataValue, -1.45, 8.8370199999999988E-08
DataValue, -1.4000000000000001, 9.2757199999999986E-08
DataValue, -1.35, 9.8837799999999991E-08
DataValue, -1.3, 1.0332999999999999E-07
DataValue, -1.25, 1.0741839999999999E-07
DataValue, -1.2, 1.1417839999999999E-07
DataValue, -1.1500000000000001, 1.2144E-07
DataValue, -1.1, 1.2252E-07
DataValue, -1.05, 1.2802E-07
DataValue, -1, 1.2914E-07
DataValue, -0.95000000000000007, 1.3486E-07
DataValue, -0.9, 1.3912E-07
DataValue, -0.85, 1.4375999999999999E-07
DataValue, -0.8, 1.5003999999999999E-07
DataValue, -0.75, 1.5474E-07
DataValue, -0.70000000000000007, 1.6064E-07
DataValue, -0.65, 1.6752E-07
DataValue, -0.6, 1.744E-07
DataValue, -0.55, 1.7716E-07
DataValue, -0.5, 1.8706E-07
DataValue, -0.45, 1.9324E-07
DataValue, -0.4, 2E-07
DataValue, -0.35000000000000003, 2.0734E-07
DataValue, -0.3, 2.1086E-07
DataValue, -0.25, 2.1716E-07
DataValue, -0.2, 2.2473999999999999E-07
DataValue, -0.15, 2.3032E-07
DataValue, -0.1, 2.3776E-07
DataValue, -0.05, 2.4502E-07
DataValue, 0, 2.5217999999999997E-07
DataValue, 0.05, 2.5776E-07
DataValue, 0.1, 2.6374E-07
DataValue, 0.15, 2.6996E-07
DataValue, 0.2, 2.7954E-07
DataValue, 0.25, 2.8406E-07
DataValue, 0.3, 2.9318E-07
DataValue, 0.35000000000000003, 2.9716E-07
DataValue, 0.4, 3.0494E-07
DataValue, 0.45, 3.1078E-07
DataValue, 0.5, 3.162E-07
DataValue, 0.55, 3.2276E-07
DataValue, 0.6, 3.3051999999999997E-07
DataValue, 0.65, 3.3714E-07
DataValue, 0.70000000000000007, 3.4398E-07
DataValue, 0.75, 3.515E-07
DataValue, 0.8, 3.5726E-07
DataValue, 0.85, 3.644E-07
DataValue, 0.9, 3.712E-07
DataValue, 0.95000000000000007, 3.7925999999999997E-07
DataValue, 1, 3.8532E-07
DataValue, 1.05, 3.902E-07
DataValue, 1.1, 3.972E-07
DataValue, 1.1500000000000001, 4.0304E-07
DataValue, 1.2, 4.0948E-07
DataValue, 1.25, 4.1284E-07
DataValue, 1.3, 4.2124E-07
DataValue, 1.35, 4.275E-07
DataValue, 1.4000000000000001, 4.321E-07
DataValue, 1.45, 4.3604E-07
DataValue, 1.5, 4.4118E-07
DataValue, 1.55, 4.5136E-07
DataValue, 1.6, 4.5549999999999997E-07
DataValue, 1.6500000000000001, 4.6032E-07
DataValue, 1.7, 4.679E-07
DataValue, 1.75, 4.7197999999999997E-07
DataValue, 1.8, 4.8006E-07
DataValue, 1.85, 4.856E-07
DataValue, 1.9000000000000001, 4.8814E-07
DataValue, 1.95, 4.9246E-07
DataValue, 2, 4.9832E-07
DataValue, 2.05, 5.0552E-07
DataValue, 2.1, 5.0994E-07
DataValue, 2.15, 5.155E-07
DataValue, 2.2, 5.1922E-07
DataValue, 2.25, 5.2616E-07
DataValue, 2.3000000000000003, 5.3112E-07
DataValue, 2.35, 5.3686E-07
DataValue, 2.4, 5.434E-07
DataValue, 2.45, 5.4956E-07
DataValue, 2.5, 5.5516E-07
DataValue, 2.5500000000000003, 5.5934E-07
DataValue, 2.6, 5.6274E-07
DataValue, 2.65, 5.635E-07
DataValue, 2.7, 5.6904E-07
DataValue, 2.75, 5.7604E-07
DataValue, 2.8000000000000003, 5.7772E-07
DataValue, 2.85, 5.8034E-07
DataValue, 2.9, 5.8658E-07
DataValue, 2.95, 5.9371999999999995E-07
DataValue, 3, 5.9595999999999994E-07
DataValue, 3.0500000000000003, 5.9744E-07
DataValue, 3.1, 6.0468E-07
DataValue, 3.15, 6.0992E-07
DataValue, 3.2, 6.1558E-07
DataValue, 3.25, 6.1712E-07
DataValue, 3.3000000000000003, 6.1916E-07
DataValue, 3.35, 6.229E-07
DataValue, 3.4, 6.2594E-07
DataValue, 3.45, 6.3166E-07
DataValue, 3.5, 6.3482E-07
DataValue, 3.5500000000000003, 6.3774E-07
DataValue, 3.6, 6.3874E-07
DataValue, 3.65, 6.4665999999999994E-07
DataValue, 3.7, 6.5124E-07
DataValue, 3.75, 6.5278E-07
DataValue, 3.8000000000000003, 6.5767999999999994E-07
DataValue, 3.85, 6.604E-07
DataValue, 3.9, 6.6424E-07
DataValue, 3.95, 6.6738E-07
DataValue, 4, 6.6978E-07
DataValue, 4.05, 6.7792E-07
DataValue, 4.1, 6.7966E-07
DataValue, 4.15, 6.84E-07
DataValue, 4.2, 6.857E-07
DataValue, 4.25, 6.8839999999999994E-07
DataValue, 4.3, 6.9296E-07
DataValue, 4.3500000000000005, 6.9836E-07
DataValue, 4.4, 6.9997999999999995E-07
DataValue, 4.45, 7.035E-07
DataValue, 4.5, 7.076E-07
DataValue, 4.55, 7.1002E-07
DataValue, 4.6000000000000005, 7.1546E-07
DataValue, 4.65, 7.1764E-07
DataValue, 4.7, 7.2134E-07
DataValue, 4.75, 7.2376E-07
DataValue, 4.8, 7.2512E-07
DataValue, 4.8500000000000005, 7.3252E-07
DataValue, 4.9, 7.3316E-07
DataValue, 4.95, 7.3494E-07
DataValue, 5, 7.3708E-07
DataValue, 5, 7.3858E-07
DataValue, 4.95, 7.3502E-07
DataValue, 4.9, 7.369E-07
DataValue, 4.8500000000000005, 7.3534E-07
DataValue, 4.8, 7.3619999999999994E-07
DataValue, 4.75, 7.3474E-07
DataValue, 4.7, 7.3338E-07
DataValue, 4.65, 7.3349999999999994E-07
DataValue, 4.6000000000000005, 7.3171999999999994E-07
DataValue, 4.55, 7.2929999999999995E-07
DataValue, 4.5, 7.2873999999999995E-07
DataValue, 4.45, 7.299E-07
DataValue, 4.4, 7.2832E-07
DataValue, 4.3500000000000005, 7.2624E-07
DataValue, 4.3, 7.2415999999999994E-07
DataValue, 4.25, 7.24E-07
DataValue, 4.2, 7.213E-07
DataValue, 4.15, 7.2146E-07
DataValue, 4.1, 7.1618E-07
DataValue, 4.05, 7.1652E-07
DataValue, 4, 7.1346E-07
DataValue, 3.95, 7.0932E-07
DataValue, 3.9, 7.0972E-07
DataValue, 3.85, 7.0862E-07
DataValue, 3.8000000000000003, 7.075E-07
DataValue, 3.75, 7.0656E-07
DataValue, 3.7, 7.065E-07
DataValue, 3.65, 7.0472E-07
DataValue, 3.6, 7.0092E-07
DataValue, 3.5500000000000003, 7.0104E-07
DataValue, 3.5, 6.9868E-07
DataValue, 3.45, 6.9516E-07
DataValue, 3.4, 6.9374E-07
DataValue, 3.35, 6.9326E-07
DataValue, 3.3000000000000003, 6.901E-07
DataValue, 3.25, 6.8969999999999994E-07
DataValue, 3.2, 6.8468E-07
DataValue, 3.15, 6.825E-07
DataValue, 3.1, 6.7992E-07
DataValue, 3.0500000000000003, 6.7954E-07
DataValue, 3, 6.776E-07
DataValue, 2.95, 6.7502E-07
DataValue, 2.9, 6.7195999999999994E-07
DataValue, 2.85, 6.6792E-07
DataValue, 2.8000000000000003, 6.6932E-07
DataValue, 2.75, 6.6586E-07
DataValue, 2.7, 6.6462E-07
DataValue, 2.65, 6.6352E-07
DataValue, 2.6, 6.6164E-07
DataValue, 2.5500000000000003, 6.5571999999999995E-07
DataValue, 2.5, 6.5225999999999994E-07
DataValue, 2.45, 6.4864E-07
DataValue, 2.4, 6.4912E-07
DataValue, 2.35, 6.4252E-07
DataValue, 2.3000000000000003, 6.416E-07
DataValue, 2.25, 6.3955999999999994E-07
DataValue, 2.2, 6.3479999999999994E-07
DataValue, 2.15, 6.289E-07
DataValue, 2.1, 6.2586E-07
DataValue, 2.05, 6.2242E-07
DataValue, 2, 6.187E-07
DataValue, 1.95, 6.1408E-07
DataValue, 1.9000000000000001, 6.124E-07
DataValue, 1.85, 6.0712E-07
DataValue, 1.8, 6.035E-07
DataValue, 1.75, 5.994E-07
DataValue, 1.7, 5.9394E-07
DataValue, 1.6500000000000001, 5.895E-07
DataValue, 1.6, 5.8498E-07
DataValue, 1.55, 5.803E-07
DataValue, 1.5, 5.761E-07
DataValue, 1.45, 5.705E-07
DataValue, 1.4000000000000001, 5.6534E-07
DataValue, 1.35, 5.605E-07
DataValue, 1.3, 5.5728E-07
DataValue, 1.25, 5.526E-07
DataValue, 1.2, 5.4644E-07
DataValue, 1.1500000000000001, 5.4212E-07
DataValue, 1.1, 5.3782E-07
DataValue, 1.05, 5.3242E-07
DataValue, 1, 5.2582E-07
DataValue, 0.95000000000000007, 5.2224E-07
DataValue, 0.9, 5.1642E-07
DataValue, 0.85, 5.1068E-07
DataValue, 0.8, 5.058E-07
DataValue, 0.75, 4.978E-07
DataValue, 0.70000000000000007, 4.9288E-07
DataValue, 0.65, 4.863E-07
DataValue, 0.6, 4.817E-07
DataValue, 0.55, 4.7699999999999994E-07
DataValue, 0.5, 4.707E-07
DataValue, 0.45, 4.6431999999999996E-07
DataValue, 0.4, 4.5918E-07
DataValue, 0.35000000000000003, 4.5402E-07
DataValue, 0.3, 4.4746E-07
DataValue, 0.25, 4.399E-07
DataValue, 0.2, 4.3292E-07
DataValue, 0.15, 4.2654E-07
DataValue, 0.1, 4.2012E-07
DataValue, 0.05, 4.1144E-07
DataValue, 0, 4.0432E-07
DataValue, -0.05, 3.973E-07
DataValue, -0.1, 3.9128E-07
DataValue, -0.15, 3.8484E-07
DataValue, -0.2, 3.7574E-07
DataValue, -0.25, 3.6828E-07
DataValue, -0.3, 3.6286E-07
DataValue, -0.35000000000000003, 3.5544E-07
DataValue, -0.4, 3.476E-07
DataValue, -0.45, 3.4114E-07
DataValue, -0.5, 3.3196E-07
DataValue, -0.55, 3.2572E-07
DataValue, -0.6, 3.1878E-07
DataValue, -0.65, 3.1064E-07
DataValue, -0.70000000000000007, 3.0262E-07
DataValue, -0.75, 2.9376E-07
DataValue, -0.8, 2.877E-07
DataValue, -0.85, 2.8092E-07
DataValue, -0.9, 2.7215999999999997E-07
DataValue, -0.95000000000000007, 2.6336E-07
DataValue, -1, 2.5558E-07
DataValue, -1.05, 2.4744E-07
DataValue, -1.1, 2.4002E-07
DataValue, -1.1500000000000001, 2.3416E-07
DataValue, -1.2, 2.2588E-07
DataValue, -1.25, 2.1714E-07
DataValue, -1.3, 2.1244E-07
DataValue, -1.35, 2.0466E-07
DataValue, -1.4000000000000001, 1.9618E-07
DataValue, -1.45, 1.891E-07
DataValue, -1.5, 1.7884E-07
DataValue, -1.55, 1.7276E-07
DataValue, -1.6, 1.6266E-07
DataValue, -1.6500000000000001, 1.5904E-07
DataValue, -1.7, 1.4888E-07
DataValue, -1.75, 1.444E-07
DataValue, -1.8, 1.3916E-07
DataValue, -1.85, 1.3254E-07
DataValue, -1.9000000000000001, 1.2572E-07
DataValue, -1.95, 1.197E-07
DataValue, -2, 1.1344E-07
DataValue, -2.05, 1.0419999999999999E-07
DataValue, -2.1, 9.04016E-08
DataValue, -2.15, 8.5033199999999989E-08
DataValue, -2.2, 7.9891399999999992E-08
DataValue, -2.25, 7.54616E-08
DataValue, -2.3000000000000003, 6.87088E-08
DataValue, -2.35, 6.6372E-08
DataValue, -2.4, 6.1783199999999989E-08
DataValue, -2.45, 5.9438399999999994E-08
DataValue, -2.5, 5.5151199999999993E-08
DataValue, -2.5500000000000003, 5.3629599999999996E-08
DataValue, -2.6, 4.8553E-08
DataValue, -2.65, 4.5773199999999993E-08
DataValue, -2.7, 4.2297399999999993E-08
DataValue, -2.75, 4.0628E-08
DataValue, -2.8000000000000003, 4.0671999999999995E-08
DataValue, -2.85, 3.7106999999999996E-08
DataValue, -2.9, 3.48188E-08
DataValue, -2.95, 3.23546E-08
DataValue, -3, 3.0123199999999995E-08
DataValue, -3.0500000000000003, 2.7095999999999997E-08
DataValue, -3.1, 2.4512399999999997E-08
DataValue, -3.15, 2.3045199999999996E-08
DataValue, -3.2, 2.1494799999999997E-08
DataValue, -3.25, 1.8841799999999997E-08
DataValue, -3.3000000000000003, 1.89846E-08
DataValue, -3.35, 1.72822E-08
DataValue, -3.4, 1.5514399999999998E-08
DataValue, -3.45, 1.50856E-08
DataValue, -3.5, 1.3474799999999999E-08
DataValue, -3.5500000000000003, 1.2821999999999999E-08
DataValue, -3.6, 1.0835199999999998E-08
DataValue, -3.65, 1.06556E-08
DataValue, -3.7, 1.0451999999999998E-08
DataValue, -3.75, 1.0554799999999998E-08
DataValue, -3.8000000000000003, 1.0529999999999999E-08
DataValue, -3.85, 7.9272E-09
DataValue, -3.9, 8.1341E-09
DataValue, -3.95, 8.0974E-09
DataValue, -4, 7.332E-09
DataValue, -4.05, 7.8181E-09
DataValue, -4.1, 7.5867E-09
DataValue, -4.15, 6.3629E-09
DataValue, -4.2, 5.7629E-09
DataValue, -4.25, 4.8426E-09
DataValue, -4.3, 4.5808E-09
DataValue, -4.3500000000000005, 4.4195E-09
DataValue, -4.4, 4.1288E-09
DataValue, -4.45, 3.4245E-09
DataValue, -4.5, 3.4649E-09
DataValue, -4.55, 3.0174E-09
DataValue, -4.6000000000000005, 2.8717E-09
DataValue, -4.65, 2.6878E-09
DataValue, -4.7, 2.6098E-09
DataValue, -4.75, 2.4531E-09
DataValue, -4.8, 2.3243E-09
DataValue, -4.8500000000000005, 2.21E-09
DataValue, -4.9, 1.9428E-09
DataValue, -4.95, 1.9215E-09
DataValue, -5, 1.6199E-09
DataValue, -5, 7.8087E-09
DataValue, -4.95, 7.4626E-09
DataValue, -4.9, 7.6153E-09
DataValue, -4.8500000000000005, 7.6595E-09
DataValue, -4.8, 8.5024E-09
DataValue, -4.75, 8.764E-09
DataValue, -4.7, 1.03287E-08
DataValue, -4.65, 9.372E-09
