
SetupTitle, Transfer(1)
PrimitiveTest, I/V Sweep
TestParameter, Context.MainFrame, B1500A
TestParameter, Channel.UnitType, SMU, SMU
TestParameter, Channel.Unit, SMU1:HR, SMU2:HR
TestParameter, Channel.IName, Igs, Ids
TestParameter, Channel.VName, Vgs, Vds
TestParameter, Channel.Mode, V, V
TestParameter, Channel.Func, VAR1, VAR2
TestParameter, Channel.Index, 
TestParameter, Channel.Time, 
TestParameter, Measurement.Port.Unit, SMU1:HR, SMU2:HR
TestParameter, Measurement.Port.SeriesResistor, NONE, NONE
TestParameter, Measurement.Port.Filter, ON, ON
TestParameter, Measurement.Port.OutputVoltageComparison, 0, 0
TestParameter, Measurement.Primary.Locus, Double
TestParameter, Measurement.Primary.Scale, LINEAR
TestParameter, Measurement.Primary.Start, -5
TestParameter, Measurement.Primary.Stop, 5
TestParameter, Measurement.Primary.Step, 0.05
TestParameter, Measurement.Primary.Compliance, 0.05
TestParameter, Measurement.Primary.PowerCompliance, 0
TestParameter, Measurement.Aborting.Condition, STOP AT ANY ABNORMAL
TestParameter, Measurement.PostOutput.Value, START
TestParameter, Measurement.PostOutput.Retention, OFF
TestParameter, Measurement.Secondary.Start, 0.01
TestParameter, Measurement.Secondary.Count, 2
TestParameter, Measurement.Secondary.Step, 0.02
TestParameter, Measurement.Secondary.Compliance, 0.05
TestParameter, Measurement.Secondary.PowerCompliance, 0
TestParameter, Measurement.Bias.Source, -5, 0.01
TestParameter, Measurement.Bias.Compliance, 0.05, 0.05
TestParameter, Measurement.Monitor.Unit, SMU2:HR, SMU1:HR
TestParameter, Measurement.Monitor.Adc, HR ADC, HR ADC
TestParameter, Measurement.Monitor.Measurement, Compliance Side, Compliance Side
TestParameter, Measurement.Monitor.RangingMode, LIMITED, LIMITED
TestParameter, Measurement.Monitor.RangeBoundary, 100pA, 1nA
TestParameter, Measurement.Monitor.RangeRating, BY FULL RANGE, BY FULL RANGE
TestParameter, Measurement.Monitor.RangeRatingCoeff, 50, 50
TestParameter, Measurement.Timing.Hold, 0
TestParameter, Measurement.Timing.Delay, 0
TestParameter, Measurement.Adc.HighSpeed.Mode, AUTO
TestParameter, Measurement.Adc.HighSpeed.Coeff, 1
TestParameter, Measurement.Adc.HighResolution.AutoZero, OFF
TestParameter, Measurement.Adc.HighResolution.Mode, AUTO
TestParameter, Measurement.Adc.HighResolution.Coeff, 6
TestParameter, Measurement.WaitTime.Source.Coeff, 1
TestParameter, Measurement.WaitTime.Source.Offset, 0
TestParameter, Measurement.WaitTime.Monitor.Coeff, 1
TestParameter, Measurement.WaitTime.Monitor.Offset, 0
TestParameter, Output.Graph.Enabled, true
TestParameter, Output.Graph.AutoScaling, false
TestParameter, Output.Graph.XAxis.Data, Vgs
TestParameter, Output.Graph.XAxis.Scale, Linear
TestParameter, Output.Graph.XAxis.Left, -10
TestParameter, Output.Graph.XAxis.Right, 10
TestParameter, Output.Graph.XAxis.RunTimeAutoScale, true
TestParameter, Output.Graph.YAxis.Data, Ids
TestParameter, Output.Graph.YAxis.Scale, Linear
TestParameter, Output.Graph.YAxis.Bottom, -0.001
TestParameter, Output.Graph.YAxis.Top, 0.001
TestParameter, Output.Graph.YAxis.Group, 
TestParameter, Output.Graph.YAxis.RunTimeAutoScale, true
TestParameter, AutoAnalysis.Interpolation, false
TestParameter, AutoAnalysis.Line1.Enabled, false
TestParameter, AutoAnalysis.Line1.Type, 1
TestParameter, AutoAnalysis.Line1.Fix, True
TestParameter, AutoAnalysis.Line1.YAxis, 0
TestParameter, AutoAnalysis.Line1.Point1.Type, 0
TestParameter, AutoAnalysis.Line1.Point1.XY.X, 
TestParameter, AutoAnalysis.Line1.Point1.XY.Y, 
TestParameter, AutoAnalysis.Line1.Point1.Data.Var, 
TestParameter, AutoAnalysis.Line1.Point1.Data.Condition, 
TestParameter, AutoAnalysis.Line1.Point1.Data.Start, false
TestParameter, AutoAnalysis.Line1.Point1.Data.StartVar, 
TestParameter, AutoAnalysis.Line1.Point1.Data.StartCondition, 
TestParameter, AutoAnalysis.Line1.Point2.Type, 0
TestParameter, AutoAnalysis.Line1.Point2.XY.X, 
TestParameter, AutoAnalysis.Line1.Point2.XY.Y, 
TestParameter, AutoAnalysis.Line1.Point2.Data.Var, 
TestParameter, AutoAnalysis.Line1.Point2.Data.Condition, 
TestParameter, AutoAnalysis.Line1.Point2.Data.Start, false
TestParameter, AutoAnalysis.Line1.Point2.Data.StartVar, 
TestParameter, AutoAnalysis.Line1.Point2.Data.StartCondition, 
TestParameter, AutoAnalysis.Line1.GradientExpr, 0
TestParameter, AutoAnalysis.Line2.Enabled, false
TestParameter, AutoAnalysis.Line2.Type, 1
TestParameter, AutoAnalysis.Line2.Fix, True
TestParameter, AutoAnalysis.Line2.YAxis, 0
TestParameter, AutoAnalysis.Line2.Point1.Type, 0
TestParameter, AutoAnalysis.Line2.Point1.XY.X, 
TestParameter, AutoAnalysis.Line2.Point1.XY.Y, 
TestParameter, AutoAnalysis.Line2.Point1.Data.Var, 
TestParameter, AutoAnalysis.Line2.Point1.Data.Condition, 
TestParameter, AutoAnalysis.Line2.Point1.Data.Start, false
TestParameter, AutoAnalysis.Line2.Point1.Data.StartVar, 
TestParameter, AutoAnalysis.Line2.Point1.Data.StartCondition, 
TestParameter, AutoAnalysis.Line2.Point2.Type, 0
TestParameter, AutoAnalysis.Line2.Point2.XY.X, 
TestParameter, AutoAnalysis.Line2.Point2.XY.Y, 
TestParameter, AutoAnalysis.Line2.Point2.Data.Var, 
TestParameter, AutoAnalysis.Line2.Point2.Data.Condition, 
TestParameter, AutoAnalysis.Line2.Point2.Data.Start, false
TestParameter, AutoAnalysis.Line2.Point2.Data.StartVar, 
TestParameter, AutoAnalysis.Line2.Point2.Data.StartCondition, 
TestParameter, AutoAnalysis.Line2.GradientExpr, 0
TestParameter, AutoAnalysis.Marker.Enabled, false
TestParameter, AutoAnalysis.Marker.Data.Var, 
TestParameter, AutoAnalysis.Marker.Data.Condition, 
TestParameter, AutoAnalysis.Marker.Data.Start, false
TestParameter, AutoAnalysis.Marker.Data.StartVar, 
TestParameter, AutoAnalysis.Marker.Data.StartCondition, 
MetaData, TestRecord.EntryPoint, true
MetaData, TestRecord.RecordTime, 07/21/2020 19:15:19
MetaData, TestRecord.TestTarget, 0413d56
MetaData, TestRecord.IterationIndex, 33
MetaData, TestRecord.Preservation, true
MetaData, TestRecord.Flag, 
MetaData, TestRecord.Remarks, 
MetaData, TestRecord.LinkKey, 81d98475-460d-4b8e-88d8-7c6c4dc5af2c
Dimension1, 402, 402
Dimension2, 2, 2
DataName, Vgs, Ids
DataValue, -5, 6.14948E-11
DataValue, -4.95, 4.6249799999999996E-11
DataValue, -4.9, 3.90766E-11
DataValue, -4.8500000000000005, 3.86506E-11
DataValue, -4.8, 3.83374E-11
DataValue, -4.75, 3.60608E-11
DataValue, -4.7, 3.7060599999999997E-11
DataValue, -4.65, 3.90924E-11
DataValue, -4.6000000000000005, 3.7734E-11
DataValue, -4.55, 4.18498E-11
DataValue, -4.5, 4.125E-11
DataValue, -4.45, 4.1889E-11
DataValue, -4.4, 4.75088E-11
DataValue, -4.3500000000000005, 4.7972E-11
DataValue, -4.3, 5.25218E-11
DataValue, -4.25, 5.2293999999999997E-11
DataValue, -4.2, 5.1773E-11
DataValue, -4.15, 6.39914E-11
DataValue, -4.1, 6.28856E-11
DataValue, -4.05, 6.39642E-11
DataValue, -4, 7.35044E-11
DataValue, -3.95, 7.11406E-11
DataValue, -3.9, 8.35706E-11
DataValue, -3.85, 9.47126E-11
DataValue, -3.8000000000000003, 1.079388E-10
DataValue, -3.75, 1.142494E-10
DataValue, -3.7, 1.2069E-10
DataValue, -3.65, 1.2167E-10
DataValue, -3.6, 1.3809E-10
DataValue, -3.5500000000000003, 1.5735E-10
DataValue, -3.5, 1.7400000000000002E-10
DataValue, -3.45, 1.7695000000000002E-10
DataValue, -3.4, 1.8465E-10
DataValue, -3.35, 1.9085000000000002E-10
DataValue, -3.3000000000000003, 2.3432E-10
DataValue, -3.25, 2.5788000000000004E-10
DataValue, -3.2, 2.7888E-10
DataValue, -3.15, 3.0470000000000004E-10
DataValue, -3.1, 3.3765E-10
DataValue, -3.0500000000000003, 3.7483000000000004E-10
DataValue, -3, 4.2145000000000003E-10
DataValue, -2.95, 4.5519000000000006E-10
DataValue, -2.9, 5.4684E-10
DataValue, -2.85, 5.5863000000000007E-10
DataValue, -2.8000000000000003, 5.6561000000000008E-10
DataValue, -2.75, 6.123300000000001E-10
DataValue, -2.7, 7.7660000000000009E-10
DataValue, -2.65, 9.3146E-10
DataValue, -2.6, 9.749E-10
DataValue, -2.5500000000000003, 1.0129E-09
DataValue, -2.5, 1.1206E-09
DataValue, -2.45, 1.2383E-09
DataValue, -2.4, 1.3745E-09
DataValue, -2.35, 1.2813E-09
DataValue, -2.3000000000000003, 1.6098E-09
DataValue, -2.25, 1.9372E-09
DataValue, -2.2, 2.0403E-09
DataValue, -2.15, 2.1354E-09
DataValue, -2.1, 2.4742E-09
DataValue, -2.05, 2.6271E-09
DataValue, -2, 3.0421E-09
DataValue, -1.95, 3.2448E-09
DataValue, -1.9000000000000001, 3.5719E-09
DataValue, -1.85, 4.0348E-09
DataValue, -1.8, 4.1231E-09
DataValue, -1.75, 4.5996E-09
DataValue, -1.7, 5.3647E-09
DataValue, -1.6500000000000001, 5.9569E-09
DataValue, -1.6, 6.5155E-09
DataValue, -1.55, 6.6843E-09
DataValue, -1.5, 7.4995E-09
DataValue, -1.45, 8.3052E-09
DataValue, -1.4000000000000001, 8.9976E-09
DataValue, -1.35, 9.3328E-09
DataValue, -1.3, 9.8623E-09
DataValue, -1.25, 1.07564E-08
DataValue, -1.2, 1.14018E-08
DataValue, -1.1500000000000001, 1.22632E-08
DataValue, -1.1, 1.2811199999999999E-08
DataValue, -1.05, 1.3767999999999998E-08
DataValue, -1, 1.4688799999999999E-08
DataValue, -0.95000000000000007, 1.52712E-08
DataValue, -0.9, 1.67384E-08
DataValue, -0.85, 1.69298E-08
DataValue, -0.8, 1.8474199999999998E-08
DataValue, -0.75, 1.98896E-08
DataValue, -0.70000000000000007, 2.12092E-08
DataValue, -0.65, 2.26964E-08
DataValue, -0.6, 2.5117E-08
DataValue, -0.55, 2.5965399999999996E-08
DataValue, -0.5, 2.6818199999999997E-08
DataValue, -0.45, 2.95266E-08
DataValue, -0.4, 3.1699799999999995E-08
DataValue, -0.35000000000000003, 3.4478E-08
DataValue, -0.3, 3.6339399999999994E-08
DataValue, -0.25, 3.74546E-08
DataValue, -0.2, 3.7491999999999996E-08
DataValue, -0.15, 4.16736E-08
DataValue, -0.1, 4.40596E-08
DataValue, -0.05, 4.62432E-08
DataValue, 0, 4.9292599999999995E-08
DataValue, 0.05, 5.13638E-08
DataValue, 0.1, 5.3755999999999995E-08
DataValue, 0.15, 5.604E-08
DataValue, 0.2, 5.9564399999999992E-08
DataValue, 0.25, 6.0915999999999988E-08
DataValue, 0.3, 6.41426E-08
DataValue, 0.35000000000000003, 6.7487999999999989E-08
DataValue, 0.4, 6.8298E-08
DataValue, 0.45, 7.12748E-08
DataValue, 0.5, 7.38494E-08
DataValue, 0.55, 7.6627799999999992E-08
DataValue, 0.6, 8.0098399999999989E-08
DataValue, 0.65, 8.28046E-08
DataValue, 0.70000000000000007, 8.552639999999999E-08
DataValue, 0.75, 8.76926E-08
DataValue, 0.8, 9.04616E-08
DataValue, 0.85, 9.37406E-08
DataValue, 0.9, 9.5976799999999989E-08
DataValue, 0.95000000000000007, 9.9103999999999985E-08
DataValue, 1, 1.0172099999999999E-07
DataValue, 1.05, 1.0503519999999999E-07
DataValue, 1.1, 1.07317E-07
DataValue, 1.1500000000000001, 1.102098E-07
DataValue, 1.2, 1.1268559999999999E-07
DataValue, 1.25, 1.1451159999999999E-07
DataValue, 1.3, 1.1902E-07
DataValue, 1.35, 1.2162E-07
DataValue, 1.4000000000000001, 1.2418E-07
DataValue, 1.45, 1.2698E-07
DataValue, 1.5, 1.285E-07
DataValue, 1.55, 1.3116E-07
DataValue, 1.6, 1.329E-07
DataValue, 1.6500000000000001, 1.3542E-07
DataValue, 1.7, 1.3716E-07
DataValue, 1.75, 1.4042E-07
DataValue, 1.8, 1.4249999999999999E-07
DataValue, 1.85, 1.4452E-07
DataValue, 1.9000000000000001, 1.4622E-07
DataValue, 1.95, 1.4856E-07
DataValue, 2, 1.5016E-07
DataValue, 2.05, 1.5316E-07
DataValue, 2.1, 1.5452E-07
DataValue, 2.15, 1.5771999999999999E-07
DataValue, 2.2, 1.5946E-07
DataValue, 2.25, 1.618E-07
DataValue, 2.3000000000000003, 1.637E-07
DataValue, 2.35, 1.6496E-07
DataValue, 2.4, 1.68E-07
DataValue, 2.45, 1.7044E-07
DataValue, 2.5, 1.7198E-07
DataValue, 2.5500000000000003, 1.7442E-07
DataValue, 2.6, 1.7452E-07
DataValue, 2.65, 1.7718E-07
DataValue, 2.7, 1.789E-07
DataValue, 2.75, 1.8082E-07
DataValue, 2.8000000000000003, 1.8184E-07
DataValue, 2.85, 1.8322E-07
DataValue, 2.9, 1.861E-07
DataValue, 2.95, 1.8768E-07
DataValue, 3, 1.8988E-07
DataValue, 3.0500000000000003, 1.9192E-07
DataValue, 3.1, 1.933E-07
DataValue, 3.15, 1.9576E-07
DataValue, 3.2, 1.9768E-07
DataValue, 3.25, 1.9866E-07
DataValue, 3.3000000000000003, 2.0052E-07
DataValue, 3.35, 2.0073999999999998E-07
DataValue, 3.4, 2.0368E-07
DataValue, 3.45, 2.0533999999999998E-07
DataValue, 3.5, 2.0626E-07
DataValue, 3.5500000000000003, 2.0776E-07
DataValue, 3.6, 2.0962E-07
DataValue, 3.65, 2.1077999999999999E-07
DataValue, 3.7, 2.1238E-07
DataValue, 3.75, 2.1486E-07
DataValue, 3.8000000000000003, 2.1679999999999998E-07
DataValue, 3.85, 2.1775999999999999E-07
DataValue, 3.9, 2.1906E-07
DataValue, 3.95, 2.191E-07
DataValue, 4, 2.2142E-07
DataValue, 4.05, 2.2251999999999998E-07
DataValue, 4.1, 2.238E-07
DataValue, 4.15, 2.2546E-07
DataValue, 4.2, 2.2798E-07
DataValue, 4.25, 2.282E-07
DataValue, 4.3, 2.2868E-07
DataValue, 4.3500000000000005, 2.31E-07
DataValue, 4.4, 2.3274E-07
DataValue, 4.45, 2.3402E-07
DataValue, 4.5, 2.3502E-07
DataValue, 4.55, 2.3586E-07
DataValue, 4.6000000000000005, 2.3672E-07
DataValue, 4.65, 2.381E-07
DataValue, 4.7, 2.3958E-07
DataValue, 4.75, 2.4078E-07
DataValue, 4.8, 2.4146E-07
DataValue, 4.8500000000000005, 2.4353999999999997E-07
DataValue, 4.9, 2.4388E-07
DataValue, 4.95, 2.4402E-07
DataValue, 5, 2.4566E-07
DataValue, 5, 2.453E-07
DataValue, 4.95, 2.4436E-07
DataValue, 4.9, 2.4353999999999997E-07
DataValue, 4.8500000000000005, 2.4288E-07
DataValue, 4.8, 2.4138E-07
DataValue, 4.75, 2.4108E-07
DataValue, 4.7, 2.3891999999999997E-07
DataValue, 4.65, 2.388E-07
DataValue, 4.6000000000000005, 2.391E-07
DataValue, 4.55, 2.3706E-07
DataValue, 4.5, 2.3762E-07
DataValue, 4.45, 2.3612E-07
DataValue, 4.4, 2.3458E-07
DataValue, 4.3500000000000005, 2.3402E-07
DataValue, 4.3, 2.333E-07
DataValue, 4.25, 2.3264E-07
DataValue, 4.2, 2.3285999999999998E-07
DataValue, 4.15, 2.3075999999999998E-07
DataValue, 4.1, 2.2858E-07
DataValue, 4.05, 2.2767999999999999E-07
DataValue, 4, 2.2596E-07
DataValue, 3.95, 2.251E-07
DataValue, 3.9, 2.2374E-07
DataValue, 3.85, 2.22E-07
DataValue, 3.8000000000000003, 2.2118E-07
DataValue, 3.75, 2.198E-07
DataValue, 3.7, 2.1887999999999999E-07
DataValue, 3.65, 2.1662E-07
DataValue, 3.6, 2.1712E-07
DataValue, 3.5500000000000003, 2.1516E-07
DataValue, 3.5, 2.1366E-07
DataValue, 3.45, 2.1082E-07
DataValue, 3.4, 2.0954E-07
DataValue, 3.35, 2.0808E-07
DataValue, 3.3000000000000003, 2.0738E-07
DataValue, 3.25, 2.0558E-07
DataValue, 3.2, 2.0528E-07
DataValue, 3.15, 2.0318E-07
DataValue, 3.1, 2.0218E-07
DataValue, 3.0500000000000003, 1.9994E-07
DataValue, 3, 1.9968E-07
DataValue, 2.95, 1.9784E-07
DataValue, 2.9, 1.9666E-07
DataValue, 2.85, 1.9544E-07
DataValue, 2.8000000000000003, 1.9312E-07
DataValue, 2.75, 1.9095999999999998E-07
DataValue, 2.7, 1.8944E-07
DataValue, 2.65, 1.884E-07
DataValue, 2.6, 1.8642E-07
DataValue, 2.5500000000000003, 1.8572E-07
DataValue, 2.5, 1.8396E-07
DataValue, 2.45, 1.8322E-07
DataValue, 2.4, 1.804E-07
DataValue, 2.35, 1.7952E-07
DataValue, 2.3000000000000003, 1.7812E-07
DataValue, 2.25, 1.7685999999999998E-07
DataValue, 2.2, 1.7384E-07
DataValue, 2.15, 1.7288E-07
DataValue, 2.1, 1.7104E-07
DataValue, 2.05, 1.6924E-07
DataValue, 2, 1.6698E-07
DataValue, 1.95, 1.6628E-07
DataValue, 1.9000000000000001, 1.6522E-07
DataValue, 1.85, 1.628E-07
DataValue, 1.8, 1.612E-07
DataValue, 1.75, 1.5914E-07
DataValue, 1.7, 1.5658E-07
DataValue, 1.6500000000000001, 1.5488E-07
DataValue, 1.6, 1.536E-07
DataValue, 1.55, 1.5059999999999999E-07
DataValue, 1.5, 1.488E-07
DataValue, 1.45, 1.4734E-07
DataValue, 1.4000000000000001, 1.4389999999999999E-07
DataValue, 1.35, 1.4266E-07
DataValue, 1.3, 1.4039999999999999E-07
DataValue, 1.25, 1.3733999999999998E-07
DataValue, 1.2, 1.3618E-07
DataValue, 1.1500000000000001, 1.3369999999999999E-07
DataValue, 1.1, 1.3192E-07
DataValue, 1.05, 1.2914E-07
DataValue, 1, 1.2741999999999999E-07
DataValue, 0.95000000000000007, 1.2442E-07
DataValue, 0.9, 1.2166E-07
DataValue, 0.85, 1.1896E-07
DataValue, 0.8, 1.1646E-07
DataValue, 0.75, 1.1418E-07
DataValue, 0.70000000000000007, 1.1285999999999999E-07
DataValue, 0.65, 1.102E-07
DataValue, 0.6, 1.075E-07
DataValue, 0.55, 1.0587999999999999E-07
DataValue, 0.5, 1.0454E-07
DataValue, 0.45, 1.0168E-07
DataValue, 0.4, 9.96992E-08
DataValue, 0.35000000000000003, 9.65526E-08
DataValue, 0.3, 9.318779999999999E-08
DataValue, 0.25, 9.0039399999999985E-08
DataValue, 0.2, 8.7311199999999991E-08
DataValue, 0.15, 8.4923799999999989E-08
DataValue, 0.1, 8.2340199999999992E-08
DataValue, 0.05, 7.97838E-08
DataValue, 0, 7.6885999999999991E-08
DataValue, -0.05, 7.32394E-08
DataValue, -0.1, 6.870739999999999E-08
DataValue, -0.15, 6.577619999999999E-08
DataValue, -0.2, 6.1414599999999989E-08
DataValue, -0.25, 5.8456199999999995E-08
DataValue, -0.3, 5.7757599999999992E-08
DataValue, -0.35000000000000003, 5.42332E-08
DataValue, -0.4, 5.1473999999999995E-08
DataValue, -0.45, 4.8561599999999993E-08
DataValue, -0.5, 4.60588E-08
DataValue, -0.55, 4.14336E-08
DataValue, -0.6, 3.86484E-08
DataValue, -0.65, 3.6147E-08
DataValue, -0.70000000000000007, 3.40888E-08
DataValue, -0.75, 3.1166599999999995E-08
DataValue, -0.8, 2.9018599999999998E-08
DataValue, -0.85, 2.7499999999999998E-08
DataValue, -0.9, 2.5102599999999998E-08
DataValue, -0.95000000000000007, 2.26174E-08
DataValue, -1, 2.1162599999999997E-08
DataValue, -1.05, 1.9800599999999998E-08
DataValue, -1.1, 1.8602999999999998E-08
DataValue, -1.1500000000000001, 1.6979E-08
DataValue, -1.2, 1.5717799999999998E-08
DataValue, -1.25, 1.3778599999999999E-08
DataValue, -1.3, 1.2437199999999998E-08
DataValue, -1.35, 1.2640199999999999E-08
DataValue, -1.4000000000000001, 1.1906E-08
DataValue, -1.45, 1.0856399999999998E-08
DataValue, -1.5, 1.0255199999999999E-08
DataValue, -1.55, 9.001E-09
DataValue, -1.6, 8.9852E-09
DataValue, -1.6500000000000001, 7.9385E-09
DataValue, -1.7, 7.1949E-09
DataValue, -1.75, 6.4254E-09
DataValue, -1.8, 5.8976E-09
DataValue, -1.85, 5.4534E-09
DataValue, -1.9000000000000001, 5.3567E-09
DataValue, -1.95, 4.5946E-09
DataValue, -2, 3.9023E-09
DataValue, -2.05, 3.4152E-09
DataValue, -2.1, 2.8877E-09
DataValue, -2.15, 2.5343E-09
DataValue, -2.2, 2.314E-09
DataValue, -2.25, 1.9585E-09
DataValue, -2.3000000000000003, 1.949E-09
DataValue, -2.35, 1.894E-09
DataValue, -2.4, 1.4994E-09
DataValue, -2.45, 1.2469E-09
DataValue, -2.5, 1.1906E-09
DataValue, -2.5500000000000003, 1.0864E-09
DataValue, -2.6, 9.171E-10
DataValue, -2.65, 7.799E-10
DataValue, -2.7, 6.6928000000000009E-10
DataValue, -2.75, 6.7984E-10
DataValue, -2.8000000000000003, 5.9003000000000008E-10
DataValue, -2.85, 5.6974E-10
DataValue, -2.9, 5.4982000000000007E-10
DataValue, -2.95, 4.8055000000000006E-10
DataValue, -3, 4.4999E-10
DataValue, -3.0500000000000003, 4.3274000000000005E-10
DataValue, -3.1, 4.0995E-10
DataValue, -3.15, 3.7274000000000005E-10
DataValue, -3.2, 3.4180000000000005E-10
DataValue, -3.25, 3.137E-10
DataValue, -3.3000000000000003, 3.2682E-10
DataValue, -3.35, 3.0822000000000005E-10
DataValue, -3.4, 2.9910000000000003E-10
DataValue, -3.45, 2.8505E-10
DataValue, -3.5, 2.7130000000000004E-10
DataValue, -3.5500000000000003, 2.6812E-10
DataValue, -3.6, 2.6463E-10
DataValue, -3.65, 2.5721000000000004E-10
DataValue, -3.7, 2.1384E-10
DataValue, -3.75, 2.4977E-10
DataValue, -3.8000000000000003, 1.9646E-10
DataValue, -3.85, 2.3112000000000003E-10
DataValue, -3.9, 2.3184000000000002E-10
DataValue, -3.95, 2.2581000000000002E-10
DataValue, -4, 2.2351E-10
DataValue, -4.05, 1.9632000000000003E-10
DataValue, -4.1, 1.8891000000000002E-10
DataValue, -4.15, 1.8889E-10
DataValue, -4.2, 2.0398000000000003E-10
DataValue, -4.25, 1.5424E-10
DataValue, -4.3, 1.8619E-10
DataValue, -4.3500000000000005, 1.8860000000000003E-10
DataValue, -4.4, 1.9148000000000002E-10
DataValue, -4.45, 1.9197E-10
DataValue, -4.5, 1.9171E-10
DataValue, -4.55, 1.9197E-10
DataValue, -4.6000000000000005, 1.989E-10
DataValue, -4.65, 1.9266E-10
DataValue, -4.7, 1.5404000000000002E-10
DataValue, -4.75, 1.9796E-10
DataValue, -4.8, 1.566E-10
