
SetupTitle, Transfer(1)
PrimitiveTest, I/V Sweep
TestParameter, Context.MainFrame, B1500A
TestParameter, Channel.UnitType, SMU, SMU
TestParameter, Channel.Unit, SMU1:HR, SMU2:HR
TestParameter, Channel.IName, Igs, Ids
TestParameter, Channel.VName, Vgs, Vds
TestParameter, Channel.Mode, V, V
TestParameter, Channel.Func, VAR1, VAR2
TestParameter, Channel.Index, 
TestParameter, Channel.Time, 
TestParameter, Measurement.Port.Unit, SMU1:HR, SMU2:HR
TestParameter, Measurement.Port.SeriesResistor, NONE, NONE
TestParameter, Measurement.Port.Filter, ON, ON
TestParameter, Measurement.Port.OutputVoltageComparison, 0, 0
TestParameter, Measurement.Primary.Locus, Double
TestParameter, Measurement.Primary.Scale, LINEAR
TestParameter, Measurement.Primary.Start, -5
TestParameter, Measurement.Primary.Stop, 5
TestParameter, Measurement.Primary.Step, 0.05
TestParameter, Measurement.Primary.Compliance, 0.05
TestParameter, Measurement.Primary.PowerCompliance, 0
TestParameter, Measurement.Aborting.Condition, STOP AT ANY ABNORMAL
TestParameter, Measurement.PostOutput.Value, START
TestParameter, Measurement.PostOutput.Retention, OFF
TestParameter, Measurement.Secondary.Start, 0.01
TestParameter, Measurement.Secondary.Count, 2
TestParameter, Measurement.Secondary.Step, 0.02
TestParameter, Measurement.Secondary.Compliance, 0.05
TestParameter, Measurement.Secondary.PowerCompliance, 0
TestParameter, Measurement.Bias.Source, -5, 0.01
TestParameter, Measurement.Bias.Compliance, 0.05, 0.05
TestParameter, Measurement.Monitor.Unit, SMU2:HR, SMU1:HR
TestParameter, Measurement.Monitor.Adc, HR ADC, HR ADC
TestParameter, Measurement.Monitor.Measurement, Compliance Side, Compliance Side
TestParameter, Measurement.Monitor.RangingMode, LIMITED, LIMITED
TestParameter, Measurement.Monitor.RangeBoundary, 100pA, 1nA
TestParameter, Measurement.Monitor.RangeRating, BY FULL RANGE, BY FULL RANGE
TestParameter, Measurement.Monitor.RangeRatingCoeff, 50, 50
TestParameter, Measurement.Timing.Hold, 0
TestParameter, Measurement.Timing.Delay, 0
TestParameter, Measurement.Adc.HighSpeed.Mode, AUTO
TestParameter, Measurement.Adc.HighSpeed.Coeff, 1
TestParameter, Measurement.Adc.HighResolution.AutoZero, OFF
TestParameter, Measurement.Adc.HighResolution.Mode, AUTO
TestParameter, Measurement.Adc.HighResolution.Coeff, 6
TestParameter, Measurement.WaitTime.Source.Coeff, 1
TestParameter, Measurement.WaitTime.Source.Offset, 0
TestParameter, Measurement.WaitTime.Monitor.Coeff, 1
TestParameter, Measurement.WaitTime.Monitor.Offset, 0
TestParameter, Output.Graph.Enabled, true
TestParameter, Output.Graph.AutoScaling, false
TestParameter, Output.Graph.XAxis.Data, Vgs
TestParameter, Output.Graph.XAxis.Scale, Linear
TestParameter, Output.Graph.XAxis.Left, -10
TestParameter, Output.Graph.XAxis.Right, 10
TestParameter, Output.Graph.XAxis.RunTimeAutoScale, true
TestParameter, Output.Graph.YAxis.Data, Ids
TestParameter, Output.Graph.YAxis.Scale, Linear
TestParameter, Output.Graph.YAxis.Bottom, -0.001
TestParameter, Output.Graph.YAxis.Top, 0.001
TestParameter, Output.Graph.YAxis.Group, 
TestParameter, Output.Graph.YAxis.RunTimeAutoScale, true
TestParameter, AutoAnalysis.Interpolation, false
TestParameter, AutoAnalysis.Line1.Enabled, false
TestParameter, AutoAnalysis.Line1.Type, 1
TestParameter, AutoAnalysis.Line1.Fix, True
TestParameter, AutoAnalysis.Line1.YAxis, 0
TestParameter, AutoAnalysis.Line1.Point1.Type, 0
TestParameter, AutoAnalysis.Line1.Point1.XY.X, 
TestParameter, AutoAnalysis.Line1.Point1.XY.Y, 
TestParameter, AutoAnalysis.Line1.Point1.Data.Var, 
TestParameter, AutoAnalysis.Line1.Point1.Data.Condition, 
TestParameter, AutoAnalysis.Line1.Point1.Data.Start, false
TestParameter, AutoAnalysis.Line1.Point1.Data.StartVar, 
TestParameter, AutoAnalysis.Line1.Point1.Data.StartCondition, 
TestParameter, AutoAnalysis.Line1.Point2.Type, 0
TestParameter, AutoAnalysis.Line1.Point2.XY.X, 
TestParameter, AutoAnalysis.Line1.Point2.XY.Y, 
TestParameter, AutoAnalysis.Line1.Point2.Data.Var, 
TestParameter, AutoAnalysis.Line1.Point2.Data.Condition, 
TestParameter, AutoAnalysis.Line1.Point2.Data.Start, false
TestParameter, AutoAnalysis.Line1.Point2.Data.StartVar, 
TestParameter, AutoAnalysis.Line1.Point2.Data.StartCondition, 
TestParameter, AutoAnalysis.Line1.GradientExpr, 0
TestParameter, AutoAnalysis.Line2.Enabled, false
TestParameter, AutoAnalysis.Line2.Type, 1
TestParameter, AutoAnalysis.Line2.Fix, True
TestParameter, AutoAnalysis.Line2.YAxis, 0
TestParameter, AutoAnalysis.Line2.Point1.Type, 0
TestParameter, AutoAnalysis.Line2.Point1.XY.X, 
TestParameter, AutoAnalysis.Line2.Point1.XY.Y, 
TestParameter, AutoAnalysis.Line2.Point1.Data.Var, 
TestParameter, AutoAnalysis.Line2.Point1.Data.Condition, 
TestParameter, AutoAnalysis.Line2.Point1.Data.Start, false
TestParameter, AutoAnalysis.Line2.Point1.Data.StartVar, 
TestParameter, AutoAnalysis.Line2.Point1.Data.StartCondition, 
TestParameter, AutoAnalysis.Line2.Point2.Type, 0
TestParameter, AutoAnalysis.Line2.Point2.XY.X, 
TestParameter, AutoAnalysis.Line2.Point2.XY.Y, 
TestParameter, AutoAnalysis.Line2.Point2.Data.Var, 
TestParameter, AutoAnalysis.Line2.Point2.Data.Condition, 
TestParameter, AutoAnalysis.Line2.Point2.Data.Start, false
TestParameter, AutoAnalysis.Line2.Point2.Data.StartVar, 
TestParameter, AutoAnalysis.Line2.Point2.Data.StartCondition, 
TestParameter, AutoAnalysis.Line2.GradientExpr, 0
TestParameter, AutoAnalysis.Marker.Enabled, false
TestParameter, AutoAnalysis.Marker.Data.Var, 
TestParameter, AutoAnalysis.Marker.Data.Condition, 
TestParameter, AutoAnalysis.Marker.Data.Start, false
TestParameter, AutoAnalysis.Marker.Data.StartVar, 
TestParameter, AutoAnalysis.Marker.Data.StartCondition, 
MetaData, TestRecord.EntryPoint, true
MetaData, TestRecord.RecordTime, 07/21/2020 19:11:45
MetaData, TestRecord.TestTarget, 0609d23
MetaData, TestRecord.IterationIndex, 30
MetaData, TestRecord.Preservation, true
MetaData, TestRecord.Flag, 
MetaData, TestRecord.Remarks, 
MetaData, TestRecord.LinkKey, 1dc3b943-52b7-4790-9694-dfd131190904
Dimension1, 402, 402
Dimension2, 2, 2
DataName, Vgs, Ids
DataValue, -5, 1.2421E-10
DataValue, -4.95, 1.1630000000000002E-10
DataValue, -4.9, 1.2482000000000002E-10
DataValue, -4.8500000000000005, 1.2679E-10
DataValue, -4.8, 1.2673E-10
DataValue, -4.75, 1.3911E-10
DataValue, -4.7, 1.3654E-10
DataValue, -4.65, 1.4352E-10
DataValue, -4.6000000000000005, 1.5503E-10
DataValue, -4.55, 1.5984000000000001E-10
DataValue, -4.5, 1.6754000000000002E-10
DataValue, -4.45, 1.7068000000000003E-10
DataValue, -4.4, 1.5702000000000002E-10
DataValue, -4.3500000000000005, 1.8845E-10
DataValue, -4.3, 1.8174E-10
DataValue, -4.25, 1.8707E-10
DataValue, -4.2, 2.2348000000000001E-10
DataValue, -4.15, 2.3581000000000004E-10
DataValue, -4.1, 2.6017000000000004E-10
DataValue, -4.05, 2.7978000000000004E-10
DataValue, -4, 3.0149E-10
DataValue, -3.95, 2.7916000000000005E-10
DataValue, -3.9, 3.1437E-10
DataValue, -3.85, 3.774E-10
DataValue, -3.8000000000000003, 4.3787E-10
DataValue, -3.75, 4.3747000000000004E-10
DataValue, -3.7, 5.0663E-10
DataValue, -3.65, 5.631E-10
DataValue, -3.6, 6.7249E-10
DataValue, -3.5500000000000003, 7.4732000000000006E-10
DataValue, -3.5, 8.0599E-10
DataValue, -3.45, 9.2529000000000012E-10
DataValue, -3.4, 9.9068000000000014E-10
DataValue, -3.35, 1.1266600000000001E-09
DataValue, -3.3000000000000003, 7.9153000000000006E-10
DataValue, -3.25, 9.3634E-10
DataValue, -3.2, 1.03936E-09
DataValue, -3.15, 1.2048E-09
DataValue, -3.1, 1.3074E-09
DataValue, -3.0500000000000003, 1.4696E-09
DataValue, -3, 1.6481E-09
DataValue, -2.95, 1.9424E-09
DataValue, -2.9, 2.2017E-09
DataValue, -2.85, 2.5185E-09
DataValue, -2.8000000000000003, 2.9572E-09
DataValue, -2.75, 3.0275E-09
DataValue, -2.7, 3.5795E-09
DataValue, -2.65, 3.4591E-09
DataValue, -2.6, 4.0425E-09
DataValue, -2.5500000000000003, 4.4985E-09
DataValue, -2.5, 4.4143E-09
DataValue, -2.45, 5.1225E-09
DataValue, -2.4, 5.8253E-09
DataValue, -2.35, 6.6039E-09
DataValue, -2.3000000000000003, 6.9755E-09
DataValue, -2.25, 7.6059E-09
DataValue, -2.2, 8.7836E-09
DataValue, -2.15, 9.9918E-09
DataValue, -2.1, 9.5837999999999991E-09
DataValue, -2.05, 9.244E-09
DataValue, -2, 1.09784E-08
DataValue, -1.95, 1.18644E-08
DataValue, -1.9000000000000001, 1.3342799999999998E-08
DataValue, -1.85, 1.3822199999999999E-08
DataValue, -1.8, 1.49918E-08
DataValue, -1.75, 1.6251599999999997E-08
DataValue, -1.7, 1.73602E-08
DataValue, -1.6500000000000001, 1.8579199999999998E-08
DataValue, -1.6, 1.9461599999999997E-08
DataValue, -1.55, 2.1082199999999997E-08
DataValue, -1.5, 2.2851599999999997E-08
DataValue, -1.45, 2.4698799999999997E-08
DataValue, -1.4000000000000001, 2.52302E-08
DataValue, -1.35, 2.5706399999999997E-08
DataValue, -1.3, 2.7104199999999997E-08
DataValue, -1.25, 2.8688599999999998E-08
DataValue, -1.2, 3.15244E-08
DataValue, -1.1500000000000001, 3.2924199999999995E-08
DataValue, -1.1, 3.5250999999999996E-08
DataValue, -1.05, 3.7251399999999996E-08
DataValue, -1, 3.8952599999999996E-08
DataValue, -0.95000000000000007, 4.1073399999999995E-08
DataValue, -0.9, 4.2859999999999995E-08
DataValue, -0.85, 4.4483999999999997E-08
DataValue, -0.8, 4.7088999999999992E-08
DataValue, -0.75, 4.9894199999999994E-08
DataValue, -0.70000000000000007, 5.1544399999999997E-08
DataValue, -0.65, 5.4069999999999994E-08
DataValue, -0.6, 5.57956E-08
DataValue, -0.55, 5.8453999999999995E-08
DataValue, -0.5, 6.04876E-08
DataValue, -0.45, 6.224899999999999E-08
DataValue, -0.4, 6.5269E-08
DataValue, -0.35000000000000003, 6.743539999999999E-08
DataValue, -0.3, 7.01702E-08
DataValue, -0.25, 7.2159199999999989E-08
DataValue, -0.2, 7.42146E-08
DataValue, -0.15, 7.6136999999999989E-08
DataValue, -0.1, 7.781679999999999E-08
DataValue, -0.05, 8.0474E-08
DataValue, 0, 8.2891399999999993E-08
DataValue, 0.05, 8.5563799999999987E-08
DataValue, 0.1, 8.886759999999999E-08
DataValue, 0.15, 9.0995799999999992E-08
DataValue, 0.2, 9.28528E-08
DataValue, 0.25, 9.4084999999999985E-08
DataValue, 0.3, 9.55224E-08
DataValue, 0.35000000000000003, 9.84316E-08
DataValue, 0.4, 1.01785E-07
DataValue, 0.45, 1.033588E-07
DataValue, 0.5, 1.0623559999999999E-07
DataValue, 0.55, 1.0843079999999999E-07
DataValue, 0.6, 1.1047419999999999E-07
DataValue, 0.65, 1.1297279999999999E-07
DataValue, 0.70000000000000007, 1.1499619999999999E-07
DataValue, 0.75, 1.172E-07
DataValue, 0.8, 1.1888E-07
DataValue, 0.85, 1.214E-07
DataValue, 0.9, 1.239E-07
DataValue, 0.95000000000000007, 1.2696E-07
DataValue, 1, 1.2916E-07
DataValue, 1.05, 1.3188E-07
DataValue, 1.1, 1.3411999999999999E-07
DataValue, 1.1500000000000001, 1.3674E-07
DataValue, 1.2, 1.3964E-07
DataValue, 1.25, 1.4212E-07
DataValue, 1.3, 1.4486E-07
DataValue, 1.35, 1.4792E-07
DataValue, 1.4000000000000001, 1.5003999999999999E-07
DataValue, 1.45, 1.5212E-07
DataValue, 1.5, 1.5364E-07
DataValue, 1.55, 1.556E-07
DataValue, 1.6, 1.588E-07
DataValue, 1.6500000000000001, 1.6118E-07
DataValue, 1.7, 1.6396E-07
DataValue, 1.75, 1.6679999999999999E-07
DataValue, 1.8, 1.6878E-07
DataValue, 1.85, 1.7152E-07
DataValue, 1.9000000000000001, 1.731E-07
DataValue, 1.95, 1.7573999999999998E-07
DataValue, 2, 1.7774E-07
DataValue, 2.05, 1.7944E-07
DataValue, 2.1, 1.819E-07
DataValue, 2.15, 1.8366E-07
DataValue, 2.2, 1.8544E-07
DataValue, 2.25, 1.8798E-07
DataValue, 2.3000000000000003, 1.8958E-07
DataValue, 2.35, 1.913E-07
DataValue, 2.4, 1.9418E-07
DataValue, 2.45, 1.9628E-07
DataValue, 2.5, 1.9904E-07
DataValue, 2.5500000000000003, 2.0017999999999998E-07
DataValue, 2.6, 2.0166E-07
DataValue, 2.65, 2.0378E-07
DataValue, 2.7, 2.065E-07
DataValue, 2.75, 2.0754E-07
DataValue, 2.8000000000000003, 2.107E-07
DataValue, 2.85, 2.1202E-07
DataValue, 2.9, 2.1388E-07
DataValue, 2.95, 2.1552E-07
DataValue, 3, 2.1866E-07
DataValue, 3.0500000000000003, 2.1898E-07
DataValue, 3.1, 2.2106E-07
DataValue, 3.15, 2.2422E-07
DataValue, 3.2, 2.2552E-07
DataValue, 3.25, 2.269E-07
DataValue, 3.3000000000000003, 2.2836E-07
DataValue, 3.35, 2.296E-07
DataValue, 3.4, 2.3266E-07
DataValue, 3.45, 2.3428E-07
DataValue, 3.5, 2.366E-07
DataValue, 3.5500000000000003, 2.3856E-07
DataValue, 3.6, 2.3926E-07
DataValue, 3.65, 2.4241999999999997E-07
DataValue, 3.7, 2.4308E-07
DataValue, 3.75, 2.4596E-07
DataValue, 3.8000000000000003, 2.4722E-07
DataValue, 3.85, 2.4918E-07
DataValue, 3.9, 2.4984E-07
DataValue, 3.95, 2.5154E-07
DataValue, 4, 2.531E-07
DataValue, 4.05, 2.5469999999999997E-07
DataValue, 4.1, 2.5768E-07
DataValue, 4.15, 2.5784E-07
DataValue, 4.2, 2.5906E-07
DataValue, 4.25, 2.6072E-07
DataValue, 4.3, 2.621E-07
DataValue, 4.3500000000000005, 2.6268E-07
DataValue, 4.4, 2.6398E-07
DataValue, 4.45, 2.6634E-07
DataValue, 4.5, 2.678E-07
DataValue, 4.55, 2.6916E-07
DataValue, 4.6000000000000005, 2.7201999999999997E-07
DataValue, 4.65, 2.7164E-07
DataValue, 4.7, 2.7296E-07
DataValue, 4.75, 2.7584E-07
DataValue, 4.8, 2.7544E-07
DataValue, 4.8500000000000005, 2.7602E-07
DataValue, 4.9, 2.7718E-07
DataValue, 4.95, 2.7876E-07
DataValue, 5, 2.7968E-07
DataValue, 5, 2.789E-07
DataValue, 4.95, 2.7796E-07
DataValue, 4.9, 2.7704E-07
DataValue, 4.8500000000000005, 2.7532E-07
DataValue, 4.8, 2.7408E-07
DataValue, 4.75, 2.732E-07
DataValue, 4.7, 2.7256E-07
DataValue, 4.65, 2.7142E-07
DataValue, 4.6000000000000005, 2.7117999999999997E-07
DataValue, 4.55, 2.7054E-07
DataValue, 4.5, 2.6872E-07
DataValue, 4.45, 2.672E-07
DataValue, 4.4, 2.6588E-07
DataValue, 4.3500000000000005, 2.6496E-07
DataValue, 4.3, 2.648E-07
DataValue, 4.25, 2.6346E-07
DataValue, 4.2, 2.6216E-07
DataValue, 4.15, 2.6006E-07
DataValue, 4.1, 2.5826E-07
DataValue, 4.05, 2.5742E-07
DataValue, 4, 2.5506E-07
DataValue, 3.95, 2.5384E-07
DataValue, 3.9, 2.5332E-07
DataValue, 3.85, 2.5308E-07
DataValue, 3.8000000000000003, 2.5098E-07
DataValue, 3.75, 2.4956E-07
DataValue, 3.7, 2.4766E-07
DataValue, 3.65, 2.4652E-07
DataValue, 3.6, 2.4416E-07
DataValue, 3.5500000000000003, 2.4288E-07
DataValue, 3.5, 2.4078E-07
DataValue, 3.45, 2.4048E-07
DataValue, 3.4, 2.3916E-07
DataValue, 3.35, 2.368E-07
DataValue, 3.3000000000000003, 2.3548E-07
DataValue, 3.25, 2.3324E-07
DataValue, 3.2, 2.3213999999999999E-07
DataValue, 3.15, 2.3033999999999998E-07
DataValue, 3.1, 2.286E-07
DataValue, 3.0500000000000003, 2.269E-07
DataValue, 3, 2.2655999999999999E-07
DataValue, 2.95, 2.2566E-07
DataValue, 2.9, 2.2388E-07
DataValue, 2.85, 2.2188E-07
DataValue, 2.8000000000000003, 2.2026E-07
DataValue, 2.75, 2.2004E-07
DataValue, 2.7, 2.174E-07
DataValue, 2.65, 2.1609999999999998E-07
DataValue, 2.6, 2.1455999999999998E-07
DataValue, 2.5500000000000003, 2.1306E-07
DataValue, 2.5, 2.1044E-07
DataValue, 2.45, 2.0846E-07
DataValue, 2.4, 2.057E-07
DataValue, 2.35, 2.0516E-07
DataValue, 2.3000000000000003, 2.0286E-07
DataValue, 2.25, 2.0096E-07
DataValue, 2.2, 1.9972E-07
DataValue, 2.15, 1.9802E-07
DataValue, 2.1, 1.9616E-07
DataValue, 2.05, 1.9418E-07
DataValue, 2, 1.9336E-07
DataValue, 1.95, 1.8978E-07
DataValue, 1.9000000000000001, 1.8866E-07
DataValue, 1.85, 1.8716E-07
DataValue, 1.8, 1.8442E-07
DataValue, 1.75, 1.8242E-07
DataValue, 1.7, 1.8026E-07
DataValue, 1.6500000000000001, 1.7907999999999999E-07
DataValue, 1.6, 1.7814E-07
DataValue, 1.55, 1.7492E-07
DataValue, 1.5, 1.7242E-07
DataValue, 1.45, 1.704E-07
DataValue, 1.4000000000000001, 1.6734E-07
DataValue, 1.35, 1.6604E-07
DataValue, 1.3, 1.6376E-07
DataValue, 1.25, 1.6107999999999998E-07
DataValue, 1.2, 1.5972E-07
DataValue, 1.1500000000000001, 1.5694E-07
DataValue, 1.1, 1.5456E-07
DataValue, 1.05, 1.5206E-07
DataValue, 1, 1.4954E-07
DataValue, 0.95000000000000007, 1.4746E-07
DataValue, 0.9, 1.4445999999999999E-07
DataValue, 0.85, 1.4234E-07
DataValue, 0.8, 1.3992E-07
DataValue, 0.75, 1.378E-07
DataValue, 0.70000000000000007, 1.356E-07
DataValue, 0.65, 1.325E-07
DataValue, 0.6, 1.2928E-07
DataValue, 0.55, 1.2741999999999999E-07
DataValue, 0.5, 1.2484E-07
DataValue, 0.45, 1.221E-07
DataValue, 0.4, 1.1994E-07
DataValue, 0.35000000000000003, 1.184E-07
DataValue, 0.3, 1.149E-07
DataValue, 0.25, 1.1336E-07
DataValue, 0.2, 1.1097999999999999E-07
DataValue, 0.15, 1.0882E-07
DataValue, 0.1, 1.0568E-07
DataValue, 0.05, 1.0392E-07
DataValue, 0, 1.022E-07
DataValue, -0.05, 1.00082E-07
DataValue, -0.1, 9.70874E-08
DataValue, -0.15, 9.4860999999999992E-08
DataValue, -0.2, 9.2217799999999988E-08
DataValue, -0.25, 8.9896999999999988E-08
DataValue, -0.3, 8.7375599999999993E-08
DataValue, -0.35000000000000003, 8.4509399999999988E-08
DataValue, -0.4, 8.1725799999999989E-08
DataValue, -0.45, 7.9516599999999988E-08
DataValue, -0.5, 7.6828199999999989E-08
DataValue, -0.55, 7.4252599999999988E-08
DataValue, -0.6, 7.1825799999999987E-08
DataValue, -0.65, 6.86388E-08
DataValue, -0.70000000000000007, 6.59504E-08
DataValue, -0.75, 6.357459999999999E-08
DataValue, -0.8, 5.9865799999999991E-08
DataValue, -0.85, 5.7723999999999995E-08
DataValue, -0.9, 5.4970799999999992E-08
DataValue, -0.95000000000000007, 5.2956199999999992E-08
DataValue, -1, 5.0794E-08
DataValue, -1.05, 4.6963999999999996E-08
DataValue, -1.1, 4.40578E-08
DataValue, -1.1500000000000001, 4.16014E-08
DataValue, -1.2, 4.0237799999999995E-08
DataValue, -1.25, 3.78178E-08
DataValue, -1.3, 3.60444E-08
DataValue, -1.35, 3.32882E-08
DataValue, -1.4000000000000001, 3.0779999999999995E-08
DataValue, -1.45, 2.83566E-08
DataValue, -1.5, 2.6307599999999998E-08
DataValue, -1.55, 2.52726E-08
DataValue, -1.6, 2.2920399999999998E-08
DataValue, -1.6500000000000001, 2.0935E-08
DataValue, -1.7, 1.9106399999999998E-08
DataValue, -1.75, 1.79732E-08
DataValue, -1.8, 1.65976E-08
DataValue, -1.85, 1.5108399999999997E-08
DataValue, -1.9000000000000001, 1.41262E-08
DataValue, -1.95, 1.2997599999999998E-08
DataValue, -2, 1.1546199999999999E-08
DataValue, -2.05, 9.9109999999999986E-09
DataValue, -2.1, 8.1525E-09
DataValue, -2.15, 7.6523E-09
DataValue, -2.2, 6.3371E-09
DataValue, -2.25, 5.5761E-09
DataValue, -2.3000000000000003, 5.1177E-09
DataValue, -2.35, 4.0989E-09
DataValue, -2.4, 3.9237E-09
DataValue, -2.45, 3.4291E-09
DataValue, -2.5, 3.0749E-09
DataValue, -2.5500000000000003, 2.6404E-09
DataValue, -2.6, 2.6633E-09
DataValue, -2.65, 2.4829E-09
DataValue, -2.7, 2.1245E-09
DataValue, -2.75, 1.736E-09
DataValue, -2.8000000000000003, 1.5973E-09
DataValue, -2.85, 1.5086E-09
DataValue, -2.9, 1.4146E-09
DataValue, -2.95, 1.2727E-09
DataValue, -3, 1.1288999999999999E-09
DataValue, -3.0500000000000003, 9.865E-10
DataValue, -3.1, 9.1463000000000008E-10
DataValue, -3.15, 8.3788000000000011E-10
DataValue, -3.2, 7.9324E-10
DataValue, -3.25, 7.3543E-10
DataValue, -3.3000000000000003, 6.6715E-10
DataValue, -3.35, 6.4337E-10
DataValue, -3.4, 6.0772E-10
DataValue, -3.45, 5.4569E-10
DataValue, -3.5, 4.6467000000000006E-10
DataValue, -3.5500000000000003, 4.037E-10
DataValue, -3.6, 4.1666000000000004E-10
DataValue, -3.65, 3.9581000000000005E-10
DataValue, -3.7, 3.7110000000000004E-10
DataValue, -3.75, 3.6055E-10
DataValue, -3.8000000000000003, 3.4085E-10
DataValue, -3.85, 3.3662E-10
DataValue, -3.9, 3.2845000000000004E-10
DataValue, -3.95, 3.2649000000000003E-10
DataValue, -4, 2.7479000000000004E-10
DataValue, -4.05, 3.1284000000000003E-10
DataValue, -4.1, 2.6272E-10
DataValue, -4.15, 2.8385E-10
DataValue, -4.2, 2.6417000000000003E-10
DataValue, -4.25, 2.6055E-10
DataValue, -4.3, 2.6036E-10
DataValue, -4.3500000000000005, 2.6058000000000005E-10
DataValue, -4.4, 2.3253000000000002E-10
DataValue, -4.45, 2.2452000000000002E-10
DataValue, -4.5, 2.3498E-10
DataValue, -4.55, 1.9068E-10
DataValue, -4.6000000000000005, 2.1906000000000002E-10
DataValue, -4.65, 1.8878000000000002E-10
