
SetupTitle, Transfer(1)
PrimitiveTest, I/V Sweep
TestParameter, Context.MainFrame, B1500A
TestParameter, Channel.UnitType, SMU, SMU
TestParameter, Channel.Unit, SMU1:HR, SMU2:HR
TestParameter, Channel.IName, Igs, Ids
TestParameter, Channel.VName, Vgs, Vds
TestParameter, Channel.Mode, V, V
TestParameter, Channel.Func, VAR1, VAR2
TestParameter, Channel.Index, 
TestParameter, Channel.Time, 
TestParameter, Measurement.Port.Unit, SMU1:HR, SMU2:HR
TestParameter, Measurement.Port.SeriesResistor, NONE, NONE
TestParameter, Measurement.Port.Filter, ON, ON
TestParameter, Measurement.Port.OutputVoltageComparison, 0, 0
TestParameter, Measurement.Primary.Locus, Double
TestParameter, Measurement.Primary.Scale, LINEAR
TestParameter, Measurement.Primary.Start, -5
TestParameter, Measurement.Primary.Stop, 5
TestParameter, Measurement.Primary.Step, 0.05
TestParameter, Measurement.Primary.Compliance, 0.05
TestParameter, Measurement.Primary.PowerCompliance, 0
TestParameter, Measurement.Aborting.Condition, STOP AT ANY ABNORMAL
TestParameter, Measurement.PostOutput.Value, START
TestParameter, Measurement.PostOutput.Retention, OFF
TestParameter, Measurement.Secondary.Start, 0.01
TestParameter, Measurement.Secondary.Count, 2
TestParameter, Measurement.Secondary.Step, 0.02
TestParameter, Measurement.Secondary.Compliance, 0.05
TestParameter, Measurement.Secondary.PowerCompliance, 0
TestParameter, Measurement.Bias.Source, -5, 0.01
TestParameter, Measurement.Bias.Compliance, 0.05, 0.05
TestParameter, Measurement.Monitor.Unit, SMU2:HR, SMU1:HR
TestParameter, Measurement.Monitor.Adc, HR ADC, HR ADC
TestParameter, Measurement.Monitor.Measurement, Compliance Side, Compliance Side
TestParameter, Measurement.Monitor.RangingMode, LIMITED, LIMITED
TestParameter, Measurement.Monitor.RangeBoundary, 100pA, 1nA
TestParameter, Measurement.Monitor.RangeRating, BY FULL RANGE, BY FULL RANGE
TestParameter, Measurement.Monitor.RangeRatingCoeff, 50, 50
TestParameter, Measurement.Timing.Hold, 0
TestParameter, Measurement.Timing.Delay, 0
TestParameter, Measurement.Adc.HighSpeed.Mode, AUTO
TestParameter, Measurement.Adc.HighSpeed.Coeff, 1
TestParameter, Measurement.Adc.HighResolution.AutoZero, OFF
TestParameter, Measurement.Adc.HighResolution.Mode, AUTO
TestParameter, Measurement.Adc.HighResolution.Coeff, 6
TestParameter, Measurement.WaitTime.Source.Coeff, 1
TestParameter, Measurement.WaitTime.Source.Offset, 0
TestParameter, Measurement.WaitTime.Monitor.Coeff, 1
TestParameter, Measurement.WaitTime.Monitor.Offset, 0
TestParameter, Output.Graph.Enabled, true
TestParameter, Output.Graph.AutoScaling, false
TestParameter, Output.Graph.XAxis.Data, Vgs
TestParameter, Output.Graph.XAxis.Scale, Linear
TestParameter, Output.Graph.XAxis.Left, -10
TestParameter, Output.Graph.XAxis.Right, 10
TestParameter, Output.Graph.XAxis.RunTimeAutoScale, true
TestParameter, Output.Graph.YAxis.Data, Ids
TestParameter, Output.Graph.YAxis.Scale, Linear
TestParameter, Output.Graph.YAxis.Bottom, -0.001
TestParameter, Output.Graph.YAxis.Top, 0.001
TestParameter, Output.Graph.YAxis.Group, 
TestParameter, Output.Graph.YAxis.RunTimeAutoScale, true
TestParameter, AutoAnalysis.Interpolation, false
TestParameter, AutoAnalysis.Line1.Enabled, false
TestParameter, AutoAnalysis.Line1.Type, 1
TestParameter, AutoAnalysis.Line1.Fix, True
TestParameter, AutoAnalysis.Line1.YAxis, 0
TestParameter, AutoAnalysis.Line1.Point1.Type, 0
TestParameter, AutoAnalysis.Line1.Point1.XY.X, 
TestParameter, AutoAnalysis.Line1.Point1.XY.Y, 
TestParameter, AutoAnalysis.Line1.Point1.Data.Var, 
TestParameter, AutoAnalysis.Line1.Point1.Data.Condition, 
TestParameter, AutoAnalysis.Line1.Point1.Data.Start, false
TestParameter, AutoAnalysis.Line1.Point1.Data.StartVar, 
TestParameter, AutoAnalysis.Line1.Point1.Data.StartCondition, 
TestParameter, AutoAnalysis.Line1.Point2.Type, 0
TestParameter, AutoAnalysis.Line1.Point2.XY.X, 
TestParameter, AutoAnalysis.Line1.Point2.XY.Y, 
TestParameter, AutoAnalysis.Line1.Point2.Data.Var, 
TestParameter, AutoAnalysis.Line1.Point2.Data.Condition, 
TestParameter, AutoAnalysis.Line1.Point2.Data.Start, false
TestParameter, AutoAnalysis.Line1.Point2.Data.StartVar, 
TestParameter, AutoAnalysis.Line1.Point2.Data.StartCondition, 
TestParameter, AutoAnalysis.Line1.GradientExpr, 0
TestParameter, AutoAnalysis.Line2.Enabled, false
TestParameter, AutoAnalysis.Line2.Type, 1
TestParameter, AutoAnalysis.Line2.Fix, True
TestParameter, AutoAnalysis.Line2.YAxis, 0
TestParameter, AutoAnalysis.Line2.Point1.Type, 0
TestParameter, AutoAnalysis.Line2.Point1.XY.X, 
TestParameter, AutoAnalysis.Line2.Point1.XY.Y, 
TestParameter, AutoAnalysis.Line2.Point1.Data.Var, 
TestParameter, AutoAnalysis.Line2.Point1.Data.Condition, 
TestParameter, AutoAnalysis.Line2.Point1.Data.Start, false
TestParameter, AutoAnalysis.Line2.Point1.Data.StartVar, 
TestParameter, AutoAnalysis.Line2.Point1.Data.StartCondition, 
TestParameter, AutoAnalysis.Line2.Point2.Type, 0
TestParameter, AutoAnalysis.Line2.Point2.XY.X, 
TestParameter, AutoAnalysis.Line2.Point2.XY.Y, 
TestParameter, AutoAnalysis.Line2.Point2.Data.Var, 
TestParameter, AutoAnalysis.Line2.Point2.Data.Condition, 
TestParameter, AutoAnalysis.Line2.Point2.Data.Start, false
TestParameter, AutoAnalysis.Line2.Point2.Data.StartVar, 
TestParameter, AutoAnalysis.Line2.Point2.Data.StartCondition, 
TestParameter, AutoAnalysis.Line2.GradientExpr, 0
TestParameter, AutoAnalysis.Marker.Enabled, false
TestParameter, AutoAnalysis.Marker.Data.Var, 
TestParameter, AutoAnalysis.Marker.Data.Condition, 
TestParameter, AutoAnalysis.Marker.Data.Start, false
TestParameter, AutoAnalysis.Marker.Data.StartVar, 
TestParameter, AutoAnalysis.Marker.Data.StartCondition, 
MetaData, TestRecord.EntryPoint, true
MetaData, TestRecord.RecordTime, 07/21/2020 19:52:10
MetaData, TestRecord.TestTarget, 0303d69
MetaData, TestRecord.IterationIndex, 54
MetaData, TestRecord.Preservation, true
MetaData, TestRecord.Flag, 
MetaData, TestRecord.Remarks, 
MetaData, TestRecord.LinkKey, 7f6bc398-6207-41bb-a3a9-edf9419d0566
Dimension1, 402, 402
Dimension2, 2, 2
DataName, Vgs, Ids
DataValue, -5, 1.0784000000000001E-10
DataValue, -4.95, 1.1318E-10
DataValue, -4.9, 1.1782000000000001E-10
DataValue, -4.8500000000000005, 1.3067E-10
DataValue, -4.8, 1.3247E-10
DataValue, -4.75, 1.4341E-10
DataValue, -4.7, 1.7062E-10
DataValue, -4.65, 1.6129000000000002E-10
DataValue, -4.6000000000000005, 1.8765000000000002E-10
DataValue, -4.55, 1.9748000000000003E-10
DataValue, -4.5, 2.112E-10
DataValue, -4.45, 2.4719E-10
DataValue, -4.4, 2.5184000000000003E-10
DataValue, -4.3500000000000005, 2.7454E-10
DataValue, -4.3, 3.0746000000000004E-10
DataValue, -4.25, 3.2050000000000003E-10
DataValue, -4.2, 3.4574000000000004E-10
DataValue, -4.15, 3.5240000000000004E-10
DataValue, -4.1, 3.6892E-10
DataValue, -4.05, 4.0814000000000005E-10
DataValue, -4, 4.6569000000000007E-10
DataValue, -3.95, 4.9723E-10
DataValue, -3.9, 5.4467E-10
DataValue, -3.85, 5.6808000000000007E-10
DataValue, -3.8000000000000003, 5.8261E-10
DataValue, -3.75, 6.1898000000000007E-10
DataValue, -3.7, 6.4677E-10
DataValue, -3.65, 7.0551000000000008E-10
DataValue, -3.6, 7.8686E-10
DataValue, -3.5500000000000003, 7.7601000000000009E-10
DataValue, -3.5, 8.4559000000000008E-10
DataValue, -3.45, 8.0596000000000008E-10
DataValue, -3.4, 9.6601E-10
DataValue, -3.35, 1.07265E-09
DataValue, -3.3000000000000003, 8.902E-10
DataValue, -3.25, 9.788E-10
DataValue, -3.2, 1.0546E-09
DataValue, -3.15, 1.1278E-09
DataValue, -3.1, 1.3323E-09
DataValue, -3.0500000000000003, 1.443E-09
DataValue, -3, 1.6836E-09
DataValue, -2.95, 1.805E-09
DataValue, -2.9, 2.0512E-09
DataValue, -2.85, 2.1346E-09
DataValue, -2.8000000000000003, 2.4168999999999998E-09
DataValue, -2.75, 2.6269E-09
DataValue, -2.7, 2.8551E-09
DataValue, -2.65, 3.3917E-09
DataValue, -2.6, 3.6862E-09
DataValue, -2.5500000000000003, 4.1436E-09
DataValue, -2.5, 4.4608E-09
DataValue, -2.45, 4.7868E-09
DataValue, -2.4, 5.6236E-09
DataValue, -2.35, 6.6213E-09
DataValue, -2.3000000000000003, 6.9852E-09
DataValue, -2.25, 8.0868E-09
DataValue, -2.2, 8.9665E-09
DataValue, -2.15, 8.2498E-09
DataValue, -2.1, 8.3587E-09
DataValue, -2.05, 9.1212E-09
DataValue, -2, 1.05998E-08
DataValue, -1.95, 1.00062E-08
DataValue, -1.9000000000000001, 1.13367E-08
DataValue, -1.85, 1.2241999999999998E-08
DataValue, -1.8, 1.3740999999999999E-08
DataValue, -1.75, 1.4168399999999998E-08
DataValue, -1.7, 1.58276E-08
DataValue, -1.6500000000000001, 1.6672E-08
DataValue, -1.6, 1.8350399999999997E-08
DataValue, -1.55, 1.99276E-08
DataValue, -1.5, 2.07088E-08
DataValue, -1.45, 2.15226E-08
DataValue, -1.4000000000000001, 2.26956E-08
DataValue, -1.35, 2.29466E-08
DataValue, -1.3, 2.39812E-08
DataValue, -1.25, 2.5277399999999997E-08
DataValue, -1.2, 2.6480199999999997E-08
DataValue, -1.1500000000000001, 2.7682999999999997E-08
DataValue, -1.1, 2.8602599999999996E-08
DataValue, -1.05, 2.9241999999999998E-08
DataValue, -1, 3.05784E-08
DataValue, -0.95000000000000007, 3.16318E-08
DataValue, -0.9, 3.32094E-08
DataValue, -0.85, 3.4129599999999993E-08
DataValue, -0.8, 3.55482E-08
DataValue, -0.75, 3.6716199999999994E-08
DataValue, -0.70000000000000007, 3.7989799999999994E-08
DataValue, -0.65, 3.8772799999999995E-08
DataValue, -0.6, 4.005E-08
DataValue, -0.55, 4.1305199999999996E-08
DataValue, -0.5, 4.2040399999999993E-08
DataValue, -0.45, 4.3557399999999993E-08
DataValue, -0.4, 4.4996399999999997E-08
DataValue, -0.35000000000000003, 4.6148799999999994E-08
DataValue, -0.3, 4.7226999999999997E-08
DataValue, -0.25, 4.8353599999999996E-08
DataValue, -0.2, 4.94794E-08
DataValue, -0.15, 5.0241599999999992E-08
DataValue, -0.1, 5.1336E-08
DataValue, -0.05, 5.2796999999999993E-08
DataValue, 0, 5.4164599999999994E-08
DataValue, 0.05, 5.5416799999999995E-08
DataValue, 0.1, 5.6278599999999995E-08
DataValue, 0.15, 5.7692799999999995E-08
DataValue, 0.2, 5.8678399999999993E-08
DataValue, 0.25, 5.9927999999999992E-08
DataValue, 0.3, 6.11638E-08
DataValue, 0.35000000000000003, 6.2153799999999991E-08
DataValue, 0.4, 6.33224E-08
DataValue, 0.45, 6.44688E-08
DataValue, 0.5, 6.543279999999999E-08
DataValue, 0.55, 6.64908E-08
DataValue, 0.6, 6.70968E-08
DataValue, 0.65, 6.8284999999999992E-08
DataValue, 0.70000000000000007, 6.962719999999999E-08
DataValue, 0.75, 7.052619999999999E-08
DataValue, 0.8, 7.16958E-08
DataValue, 0.85, 7.26816E-08
DataValue, 0.9, 7.40198E-08
DataValue, 0.95000000000000007, 7.5009E-08
DataValue, 1, 7.5163599999999989E-08
DataValue, 1.05, 7.6566599999999992E-08
DataValue, 1.1, 7.7465599999999992E-08
DataValue, 1.1500000000000001, 7.8504999999999987E-08
DataValue, 1.2, 7.9523999999999991E-08
DataValue, 1.25, 8.1120999999999989E-08
DataValue, 1.3, 8.17548E-08
DataValue, 1.35, 8.2755199999999987E-08
DataValue, 1.4000000000000001, 8.3789E-08
DataValue, 1.45, 8.4019399999999988E-08
DataValue, 1.5, 8.5095199999999993E-08
DataValue, 1.55, 8.60452E-08
DataValue, 1.6, 8.6911199999999987E-08
DataValue, 1.6500000000000001, 8.8065999999999989E-08
DataValue, 1.7, 8.9356599999999989E-08
DataValue, 1.75, 9.02704E-08
DataValue, 1.8, 9.0512E-08
DataValue, 1.85, 9.1708399999999985E-08
DataValue, 1.9000000000000001, 9.24742E-08
DataValue, 1.95, 9.3436999999999992E-08
DataValue, 2, 9.3771599999999992E-08
DataValue, 2.05, 9.420599999999999E-08
DataValue, 2.1, 9.5535999999999989E-08
DataValue, 2.15, 9.63032E-08
DataValue, 2.2, 9.6993599999999993E-08
DataValue, 2.25, 9.79286E-08
DataValue, 2.3000000000000003, 9.8653199999999988E-08
DataValue, 2.35, 9.9283199999999987E-08
DataValue, 2.4, 9.962859999999999E-08
DataValue, 2.45, 1.0043659999999999E-07
DataValue, 2.5, 1.0160039999999999E-07
DataValue, 2.5500000000000003, 1.0193339999999999E-07
DataValue, 2.6, 1.0215059999999999E-07
DataValue, 2.65, 1.0288259999999999E-07
DataValue, 2.7, 1.0423619999999999E-07
DataValue, 2.75, 1.0461699999999999E-07
DataValue, 2.8000000000000003, 1.0536419999999999E-07
DataValue, 2.85, 1.0538299999999999E-07
DataValue, 2.9, 1.0636819999999999E-07
DataValue, 2.95, 1.072064E-07
DataValue, 3, 1.0800799999999998E-07
DataValue, 3.0500000000000003, 1.089368E-07
DataValue, 3.1, 1.0900319999999998E-07
DataValue, 3.15, 1.0985199999999998E-07
DataValue, 3.2, 1.1041239999999999E-07
DataValue, 3.25, 1.104734E-07
DataValue, 3.3000000000000003, 1.1123759999999999E-07
DataValue, 3.35, 1.1099859999999999E-07
DataValue, 3.4, 1.1220379999999999E-07
DataValue, 3.45, 1.128336E-07
DataValue, 3.5, 1.1324059999999999E-07
DataValue, 3.5500000000000003, 1.1350219999999999E-07
DataValue, 3.6, 1.144108E-07
DataValue, 3.65, 1.14997E-07
DataValue, 3.7, 1.1612E-07
DataValue, 3.75, 1.17E-07
DataValue, 3.8000000000000003, 1.1753999999999999E-07
DataValue, 3.85, 1.1758E-07
DataValue, 3.9, 1.1862E-07
DataValue, 3.95, 1.1842E-07
DataValue, 4, 1.19E-07
DataValue, 4.05, 1.1973999999999999E-07
DataValue, 4.1, 1.2006E-07
DataValue, 4.15, 1.2052E-07
DataValue, 4.2, 1.2124E-07
DataValue, 4.25, 1.2178E-07
DataValue, 4.3, 1.2234E-07
DataValue, 4.3500000000000005, 1.2288E-07
DataValue, 4.4, 1.2332E-07
DataValue, 4.45, 1.2366E-07
DataValue, 4.5, 1.2392E-07
DataValue, 4.55, 1.2424E-07
DataValue, 4.6000000000000005, 1.2472E-07
DataValue, 4.65, 1.257E-07
DataValue, 4.7, 1.2615999999999999E-07
DataValue, 4.75, 1.2624E-07
DataValue, 4.8, 1.2694E-07
DataValue, 4.8500000000000005, 1.2797999999999999E-07
DataValue, 4.9, 1.2864E-07
DataValue, 4.95, 1.289E-07
DataValue, 5, 1.2898E-07
DataValue, 5, 1.28E-07
DataValue, 4.95, 1.288E-07
DataValue, 4.9, 1.2755999999999999E-07
DataValue, 4.8500000000000005, 1.2776E-07
DataValue, 4.8, 1.2734E-07
DataValue, 4.75, 1.2556E-07
DataValue, 4.7, 1.2586E-07
DataValue, 4.65, 1.2517999999999999E-07
DataValue, 4.6000000000000005, 1.2392E-07
DataValue, 4.55, 1.2408E-07
DataValue, 4.5, 1.2316E-07
DataValue, 4.45, 1.2288E-07
DataValue, 4.4, 1.2244E-07
DataValue, 4.3500000000000005, 1.2168E-07
DataValue, 4.3, 1.2126E-07
DataValue, 4.25, 1.208E-07
DataValue, 4.2, 1.2015999999999999E-07
DataValue, 4.15, 1.1978E-07
DataValue, 4.1, 1.1916E-07
DataValue, 4.05, 1.1828E-07
DataValue, 4, 1.1776E-07
DataValue, 3.95, 1.1725999999999999E-07
DataValue, 3.9, 1.1621999999999999E-07
DataValue, 3.85, 1.1592E-07
DataValue, 3.8000000000000003, 1.1592E-07
DataValue, 3.75, 1.1436E-07
DataValue, 3.7, 1.1362E-07
DataValue, 3.65, 1.1304E-07
DataValue, 3.6, 1.1237999999999999E-07
DataValue, 3.5500000000000003, 1.1214E-07
DataValue, 3.5, 1.1139999999999999E-07
DataValue, 3.45, 1.1078E-07
DataValue, 3.4, 1.103E-07
DataValue, 3.35, 1.0894E-07
DataValue, 3.3000000000000003, 1.0845999999999999E-07
DataValue, 3.25, 1.079E-07
DataValue, 3.2, 1.0752E-07
DataValue, 3.15, 1.064E-07
DataValue, 3.1, 1.0594E-07
DataValue, 3.0500000000000003, 1.0514E-07
DataValue, 3, 1.0441999999999999E-07
DataValue, 2.95, 1.0394E-07
DataValue, 2.9, 1.0392E-07
DataValue, 2.85, 1.0228E-07
DataValue, 2.8000000000000003, 1.0126E-07
DataValue, 2.75, 1.0068E-07
DataValue, 2.7, 1.0072E-07
DataValue, 2.65, 9.9354199999999988E-08
DataValue, 2.6, 9.88594E-08
DataValue, 2.5500000000000003, 9.73698E-08
DataValue, 2.5, 9.7066199999999988E-08
DataValue, 2.45, 9.61686E-08
DataValue, 2.4, 9.56712E-08
DataValue, 2.35, 9.47458E-08
DataValue, 2.3000000000000003, 9.370839999999999E-08
DataValue, 2.25, 9.302479999999999E-08
DataValue, 2.2, 9.2484399999999991E-08
DataValue, 2.15, 9.19526E-08
DataValue, 2.1, 9.1307599999999991E-08
DataValue, 2.05, 9.0842799999999991E-08
DataValue, 2, 8.9470599999999986E-08
DataValue, 1.95, 8.7928999999999993E-08
DataValue, 1.9000000000000001, 8.7471799999999993E-08
DataValue, 1.85, 8.6778799999999988E-08
DataValue, 1.8, 8.6155399999999988E-08
DataValue, 1.75, 8.5011599999999985E-08
DataValue, 1.7, 8.39554E-08
DataValue, 1.6500000000000001, 8.3025199999999988E-08
DataValue, 1.6, 8.1964399999999987E-08
DataValue, 1.55, 8.1023399999999992E-08
DataValue, 1.5, 8.02522E-08
DataValue, 1.45, 7.9149799999999993E-08
DataValue, 1.4000000000000001, 7.8040199999999987E-08
DataValue, 1.35, 7.6972599999999989E-08
DataValue, 1.3, 7.643879999999999E-08
DataValue, 1.25, 7.51704E-08
DataValue, 1.2, 7.388E-08
DataValue, 1.1500000000000001, 7.2973999999999989E-08
DataValue, 1.1, 7.199E-08
DataValue, 1.05, 7.08296E-08
DataValue, 1, 6.95608E-08
DataValue, 0.95000000000000007, 6.8586999999999991E-08
DataValue, 0.9, 6.7391E-08
DataValue, 0.85, 6.61004E-08
DataValue, 0.8, 6.495379999999999E-08
DataValue, 0.75, 6.36682E-08
DataValue, 0.70000000000000007, 6.28946E-08
DataValue, 0.65, 6.13638E-08
DataValue, 0.6, 6.0167799999999989E-08
DataValue, 0.55, 5.89006E-08
DataValue, 0.5, 5.7411799999999994E-08
DataValue, 0.45, 5.6252799999999997E-08
DataValue, 0.4, 5.4543599999999994E-08
DataValue, 0.35000000000000003, 5.3513E-08
DataValue, 0.3, 5.20294E-08
DataValue, 0.25, 5.0471799999999993E-08
DataValue, 0.2, 4.9030599999999996E-08
DataValue, 0.15, 4.8219599999999996E-08
DataValue, 0.1, 4.6932399999999995E-08
DataValue, 0.05, 4.5752E-08
DataValue, 0, 4.4007199999999996E-08
DataValue, -0.05, 4.2321399999999994E-08
DataValue, -0.1, 4.08352E-08
DataValue, -0.15, 3.9664599999999996E-08
DataValue, -0.2, 3.8080399999999996E-08
DataValue, -0.25, 3.6326E-08
DataValue, -0.3, 3.5032E-08
DataValue, -0.35000000000000003, 3.3500599999999995E-08
DataValue, -0.4, 3.18838E-08
DataValue, -0.45, 3.0244599999999995E-08
DataValue, -0.5, 2.8948399999999997E-08
DataValue, -0.55, 2.7430599999999997E-08
DataValue, -0.6, 2.5820999999999997E-08
DataValue, -0.65, 2.4584999999999998E-08
DataValue, -0.70000000000000007, 2.2870199999999997E-08
DataValue, -0.75, 2.1818799999999997E-08
DataValue, -0.8, 2.00504E-08
DataValue, -0.85, 1.8424999999999998E-08
DataValue, -0.9, 1.71122E-08
DataValue, -0.95000000000000007, 1.57696E-08
DataValue, -1, 1.4880199999999999E-08
DataValue, -1.05, 1.4050399999999999E-08
DataValue, -1.1, 1.3102199999999998E-08
DataValue, -1.1500000000000001, 1.1678999999999998E-08
DataValue, -1.2, 1.0555599999999999E-08
DataValue, -1.25, 9.6569999999999984E-09
DataValue, -1.3, 8.7676E-09
DataValue, -1.35, 8.0971E-09
DataValue, -1.4000000000000001, 6.8747E-09
DataValue, -1.45, 6.4495E-09
DataValue, -1.5, 5.7511E-09
DataValue, -1.55, 5.0733E-09
DataValue, -1.6, 4.3802E-09
DataValue, -1.6500000000000001, 4.0496E-09
DataValue, -1.7, 3.4498E-09
DataValue, -1.75, 3.0766E-09
DataValue, -1.8, 2.8377E-09
DataValue, -1.85, 2.571E-09
DataValue, -1.9000000000000001, 2.4613E-09
DataValue, -1.95, 2.2246E-09
DataValue, -2, 1.9015E-09
DataValue, -2.05, 1.627E-09
DataValue, -2.1, 1.5891E-09
DataValue, -2.15, 1.5106E-09
DataValue, -2.2, 1.4122E-09
DataValue, -2.25, 1.2611E-09
DataValue, -2.3000000000000003, 1.1362E-09
DataValue, -2.35, 1.0947E-09
DataValue, -2.4, 1.0332E-09
DataValue, -2.45, 1.026E-09
DataValue, -2.5, 9.361E-10
DataValue, -2.5500000000000003, 9.0475000000000011E-10
DataValue, -2.6, 8.0575E-10
DataValue, -2.65, 8.0036E-10
DataValue, -2.7, 7.5319000000000006E-10
DataValue, -2.75, 6.8566000000000009E-10
DataValue, -2.8000000000000003, 6.4813E-10
DataValue, -2.85, 5.7543E-10
DataValue, -2.9, 5.4660000000000006E-10
DataValue, -2.95, 4.9857000000000007E-10
DataValue, -3, 4.7478E-10
DataValue, -3.0500000000000003, 4.5931000000000004E-10
DataValue, -3.1, 4.4177E-10
DataValue, -3.15, 4.2713000000000005E-10
DataValue, -3.2, 3.9445E-10
DataValue, -3.25, 3.8509E-10
DataValue, -3.3000000000000003, 3.8513000000000004E-10
DataValue, -3.35, 3.4330000000000004E-10
DataValue, -3.4, 3.1773000000000005E-10
DataValue, -3.45, 3.4108E-10
DataValue, -3.5, 3.0046E-10
DataValue, -3.5500000000000003, 2.9278000000000005E-10
DataValue, -3.6, 2.9203E-10
DataValue, -3.65, 2.9296000000000004E-10
