
SetupTitle, Transfer(1)
PrimitiveTest, I/V Sweep
TestParameter, Context.MainFrame, B1500A
TestParameter, Channel.UnitType, SMU, SMU
TestParameter, Channel.Unit, SMU1:HR, SMU2:HR
TestParameter, Channel.IName, Igs, Ids
TestParameter, Channel.VName, Vgs, Vds
TestParameter, Channel.Mode, V, V
TestParameter, Channel.Func, VAR1, VAR2
TestParameter, Channel.Index, 
TestParameter, Channel.Time, 
TestParameter, Measurement.Port.Unit, SMU1:HR, SMU2:HR
TestParameter, Measurement.Port.SeriesResistor, NONE, NONE
TestParameter, Measurement.Port.Filter, ON, ON
TestParameter, Measurement.Port.OutputVoltageComparison, 0, 0
TestParameter, Measurement.Primary.Locus, Double
TestParameter, Measurement.Primary.Scale, LINEAR
TestParameter, Measurement.Primary.Start, -5
TestParameter, Measurement.Primary.Stop, 5
TestParameter, Measurement.Primary.Step, 0.05
TestParameter, Measurement.Primary.Compliance, 0.05
TestParameter, Measurement.Primary.PowerCompliance, 0
TestParameter, Measurement.Aborting.Condition, STOP AT ANY ABNORMAL
TestParameter, Measurement.PostOutput.Value, START
TestParameter, Measurement.PostOutput.Retention, OFF
TestParameter, Measurement.Secondary.Start, 0.01
TestParameter, Measurement.Secondary.Count, 2
TestParameter, Measurement.Secondary.Step, 0.02
TestParameter, Measurement.Secondary.Compliance, 0.05
TestParameter, Measurement.Secondary.PowerCompliance, 0
TestParameter, Measurement.Bias.Source, -5, 0.01
TestParameter, Measurement.Bias.Compliance, 0.05, 0.05
TestParameter, Measurement.Monitor.Unit, SMU2:HR, SMU1:HR
TestParameter, Measurement.Monitor.Adc, HR ADC, HR ADC
TestParameter, Measurement.Monitor.Measurement, Compliance Side, Compliance Side
TestParameter, Measurement.Monitor.RangingMode, LIMITED, LIMITED
TestParameter, Measurement.Monitor.RangeBoundary, 100pA, 1nA
TestParameter, Measurement.Monitor.RangeRating, BY FULL RANGE, BY FULL RANGE
TestParameter, Measurement.Monitor.RangeRatingCoeff, 50, 50
TestParameter, Measurement.Timing.Hold, 0
TestParameter, Measurement.Timing.Delay, 0
TestParameter, Measurement.Adc.HighSpeed.Mode, AUTO
TestParameter, Measurement.Adc.HighSpeed.Coeff, 1
TestParameter, Measurement.Adc.HighResolution.AutoZero, OFF
TestParameter, Measurement.Adc.HighResolution.Mode, AUTO
TestParameter, Measurement.Adc.HighResolution.Coeff, 6
TestParameter, Measurement.WaitTime.Source.Coeff, 1
TestParameter, Measurement.WaitTime.Source.Offset, 0
TestParameter, Measurement.WaitTime.Monitor.Coeff, 1
TestParameter, Measurement.WaitTime.Monitor.Offset, 0
TestParameter, Output.Graph.Enabled, true
TestParameter, Output.Graph.AutoScaling, false
TestParameter, Output.Graph.XAxis.Data, Vgs
TestParameter, Output.Graph.XAxis.Scale, Linear
TestParameter, Output.Graph.XAxis.Left, -10
TestParameter, Output.Graph.XAxis.Right, 10
TestParameter, Output.Graph.XAxis.RunTimeAutoScale, true
TestParameter, Output.Graph.YAxis.Data, Ids
TestParameter, Output.Graph.YAxis.Scale, Linear
TestParameter, Output.Graph.YAxis.Bottom, -0.001
TestParameter, Output.Graph.YAxis.Top, 0.001
TestParameter, Output.Graph.YAxis.Group, 
TestParameter, Output.Graph.YAxis.RunTimeAutoScale, true
TestParameter, AutoAnalysis.Interpolation, false
TestParameter, AutoAnalysis.Line1.Enabled, false
TestParameter, AutoAnalysis.Line1.Type, 1
TestParameter, AutoAnalysis.Line1.Fix, True
TestParameter, AutoAnalysis.Line1.YAxis, 0
TestParameter, AutoAnalysis.Line1.Point1.Type, 0
TestParameter, AutoAnalysis.Line1.Point1.XY.X, 
TestParameter, AutoAnalysis.Line1.Point1.XY.Y, 
TestParameter, AutoAnalysis.Line1.Point1.Data.Var, 
TestParameter, AutoAnalysis.Line1.Point1.Data.Condition, 
TestParameter, AutoAnalysis.Line1.Point1.Data.Start, false
TestParameter, AutoAnalysis.Line1.Point1.Data.StartVar, 
TestParameter, AutoAnalysis.Line1.Point1.Data.StartCondition, 
TestParameter, AutoAnalysis.Line1.Point2.Type, 0
TestParameter, AutoAnalysis.Line1.Point2.XY.X, 
TestParameter, AutoAnalysis.Line1.Point2.XY.Y, 
TestParameter, AutoAnalysis.Line1.Point2.Data.Var, 
TestParameter, AutoAnalysis.Line1.Point2.Data.Condition, 
TestParameter, AutoAnalysis.Line1.Point2.Data.Start, false
TestParameter, AutoAnalysis.Line1.Point2.Data.StartVar, 
TestParameter, AutoAnalysis.Line1.Point2.Data.StartCondition, 
TestParameter, AutoAnalysis.Line1.GradientExpr, 0
TestParameter, AutoAnalysis.Line2.Enabled, false
TestParameter, AutoAnalysis.Line2.Type, 1
TestParameter, AutoAnalysis.Line2.Fix, True
TestParameter, AutoAnalysis.Line2.YAxis, 0
TestParameter, AutoAnalysis.Line2.Point1.Type, 0
TestParameter, AutoAnalysis.Line2.Point1.XY.X, 
TestParameter, AutoAnalysis.Line2.Point1.XY.Y, 
TestParameter, AutoAnalysis.Line2.Point1.Data.Var, 
TestParameter, AutoAnalysis.Line2.Point1.Data.Condition, 
TestParameter, AutoAnalysis.Line2.Point1.Data.Start, false
TestParameter, AutoAnalysis.Line2.Point1.Data.StartVar, 
TestParameter, AutoAnalysis.Line2.Point1.Data.StartCondition, 
TestParameter, AutoAnalysis.Line2.Point2.Type, 0
TestParameter, AutoAnalysis.Line2.Point2.XY.X, 
TestParameter, AutoAnalysis.Line2.Point2.XY.Y, 
TestParameter, AutoAnalysis.Line2.Point2.Data.Var, 
TestParameter, AutoAnalysis.Line2.Point2.Data.Condition, 
TestParameter, AutoAnalysis.Line2.Point2.Data.Start, false
TestParameter, AutoAnalysis.Line2.Point2.Data.StartVar, 
TestParameter, AutoAnalysis.Line2.Point2.Data.StartCondition, 
TestParameter, AutoAnalysis.Line2.GradientExpr, 0
TestParameter, AutoAnalysis.Marker.Enabled, false
TestParameter, AutoAnalysis.Marker.Data.Var, 
TestParameter, AutoAnalysis.Marker.Data.Condition, 
TestParameter, AutoAnalysis.Marker.Data.Start, false
TestParameter, AutoAnalysis.Marker.Data.StartVar, 
TestParameter, AutoAnalysis.Marker.Data.StartCondition, 
MetaData, TestRecord.EntryPoint, true
MetaData, TestRecord.RecordTime, 07/21/2020 19:40:45
MetaData, TestRecord.TestTarget, 0609d23
MetaData, TestRecord.IterationIndex, 45
MetaData, TestRecord.Preservation, true
MetaData, TestRecord.Flag, 
MetaData, TestRecord.Remarks, 
MetaData, TestRecord.LinkKey, c5a76abd-93a6-4ae7-91fb-16477d6bd76c
Dimension1, 402, 402
Dimension2, 2, 2
DataName, Vgs, Ids
DataValue, -5, 3.0461000000000005E-10
DataValue, -4.95, 2.2879000000000002E-10
DataValue, -4.9, 2.5946E-10
DataValue, -4.8500000000000005, 3.0566E-10
DataValue, -4.8, 2.8054000000000005E-10
DataValue, -4.75, 3.4909000000000003E-10
DataValue, -4.7, 3.429E-10
DataValue, -4.65, 3.9281E-10
DataValue, -4.6000000000000005, 3.8145E-10
DataValue, -4.55, 4.1462E-10
DataValue, -4.5, 3.7190000000000003E-10
DataValue, -4.45, 4.5366E-10
DataValue, -4.4, 4.2259000000000004E-10
DataValue, -4.3500000000000005, 4.7435E-10
DataValue, -4.3, 4.3481E-10
DataValue, -4.25, 5.5861E-10
DataValue, -4.2, 6.0077000000000009E-10
DataValue, -4.15, 7.3219E-10
DataValue, -4.1, 6.8727E-10
DataValue, -4.05, 7.825E-10
DataValue, -4, 7.0805000000000005E-10
DataValue, -3.95, 8.9525000000000009E-10
DataValue, -3.9, 8.657E-10
DataValue, -3.85, 1.0405600000000002E-09
DataValue, -3.8000000000000003, 9.5807E-10
DataValue, -3.75, 1.133E-09
DataValue, -3.7, 1.1231E-09
DataValue, -3.65, 1.2499E-09
DataValue, -3.6, 1.3811E-09
DataValue, -3.5500000000000003, 1.5569E-09
DataValue, -3.5, 1.7566E-09
DataValue, -3.45, 1.8107E-09
DataValue, -3.4, 1.9154E-09
DataValue, -3.35, 2.0025E-09
DataValue, -3.3000000000000003, 2.2661E-09
DataValue, -3.25, 2.5672E-09
DataValue, -3.2, 2.591E-09
DataValue, -3.15, 2.7248E-09
DataValue, -3.1, 3.0678E-09
DataValue, -3.0500000000000003, 3.1848E-09
DataValue, -3, 3.4415E-09
DataValue, -2.95, 3.765E-09
DataValue, -2.9, 3.9549E-09
DataValue, -2.85, 4.4307E-09
DataValue, -2.8000000000000003, 4.9475E-09
DataValue, -2.75, 5.0637E-09
DataValue, -2.7, 5.3864E-09
DataValue, -2.65, 5.7287E-09
DataValue, -2.6, 6.3956E-09
DataValue, -2.5500000000000003, 6.7521E-09
DataValue, -2.5, 7.0525E-09
DataValue, -2.45, 7.8165E-09
DataValue, -2.4, 8.4653E-09
DataValue, -2.35, 9.3023E-09
DataValue, -2.3000000000000003, 9.4465E-09
DataValue, -2.25, 9.8498E-09
DataValue, -2.2, 1.02426E-08
DataValue, -2.15, 1.14828E-08
DataValue, -2.1, 1.12972E-08
DataValue, -2.05, 1.3867799999999998E-08
DataValue, -2, 1.4701199999999998E-08
DataValue, -1.95, 1.6022E-08
DataValue, -1.9000000000000001, 1.75598E-08
DataValue, -1.85, 1.9045199999999997E-08
DataValue, -1.8, 1.97368E-08
DataValue, -1.75, 1.9831799999999998E-08
DataValue, -1.7, 2.118E-08
DataValue, -1.6500000000000001, 2.25952E-08
DataValue, -1.6, 2.5354199999999998E-08
DataValue, -1.55, 2.5782E-08
DataValue, -1.5, 2.8168999999999996E-08
DataValue, -1.45, 2.8652399999999996E-08
DataValue, -1.4000000000000001, 2.9611199999999997E-08
DataValue, -1.35, 3.15044E-08
DataValue, -1.3, 3.48424E-08
DataValue, -1.25, 3.64348E-08
DataValue, -1.2, 3.8122199999999993E-08
DataValue, -1.1500000000000001, 3.9791199999999993E-08
DataValue, -1.1, 4.1937999999999995E-08
DataValue, -1.05, 4.2700399999999994E-08
DataValue, -1, 4.48158E-08
DataValue, -0.95000000000000007, 4.7150199999999993E-08
DataValue, -0.9, 4.9319599999999993E-08
DataValue, -0.85, 5.25216E-08
DataValue, -0.8, 5.4611199999999996E-08
DataValue, -0.75, 5.6886799999999994E-08
DataValue, -0.70000000000000007, 5.8548799999999993E-08
DataValue, -0.65, 6.13396E-08
DataValue, -0.6, 6.3016999999999988E-08
DataValue, -0.55, 6.62066E-08
DataValue, -0.5, 6.8866199999999987E-08
DataValue, -0.45, 7.0820599999999988E-08
DataValue, -0.4, 7.375E-08
DataValue, -0.35000000000000003, 7.47342E-08
DataValue, -0.3, 7.73296E-08
DataValue, -0.25, 8.0314999999999988E-08
DataValue, -0.2, 8.20382E-08
DataValue, -0.15, 8.5355799999999989E-08
DataValue, -0.1, 8.78204E-08
DataValue, -0.05, 9.11892E-08
DataValue, 0, 9.3146599999999985E-08
DataValue, 0.05, 9.601939999999999E-08
DataValue, 0.1, 9.85322E-08
DataValue, 0.15, 1.0082619999999999E-07
DataValue, 0.2, 1.034102E-07
DataValue, 0.25, 1.070522E-07
DataValue, 0.3, 1.1048259999999999E-07
DataValue, 0.35000000000000003, 1.1301339999999999E-07
DataValue, 0.4, 1.1554E-07
DataValue, 0.45, 1.1902E-07
DataValue, 0.5, 1.2202E-07
DataValue, 0.55, 1.2412E-07
DataValue, 0.6, 1.2656E-07
DataValue, 0.65, 1.2909999999999999E-07
DataValue, 0.70000000000000007, 1.325E-07
DataValue, 0.75, 1.3425999999999999E-07
DataValue, 0.8, 1.3593999999999999E-07
DataValue, 0.85, 1.388E-07
DataValue, 0.9, 1.4114E-07
DataValue, 0.95000000000000007, 1.4332E-07
DataValue, 1, 1.4487999999999998E-07
DataValue, 1.05, 1.4884E-07
DataValue, 1.1, 1.5212E-07
DataValue, 1.1500000000000001, 1.5316E-07
DataValue, 1.2, 1.5596E-07
DataValue, 1.25, 1.5827999999999999E-07
DataValue, 1.3, 1.6026E-07
DataValue, 1.35, 1.628E-07
DataValue, 1.4000000000000001, 1.655E-07
DataValue, 1.45, 1.6805999999999998E-07
DataValue, 1.5, 1.7096E-07
DataValue, 1.55, 1.7316E-07
DataValue, 1.6, 1.7632E-07
DataValue, 1.6500000000000001, 1.7822E-07
DataValue, 1.7, 1.81E-07
DataValue, 1.75, 1.8264E-07
DataValue, 1.8, 1.8498E-07
DataValue, 1.85, 1.8734E-07
DataValue, 1.9000000000000001, 1.8913999999999999E-07
DataValue, 1.95, 1.9095999999999998E-07
DataValue, 2, 1.9314E-07
DataValue, 2.05, 1.9494E-07
DataValue, 2.1, 1.981E-07
DataValue, 2.15, 2.0052E-07
DataValue, 2.2, 2.0258E-07
DataValue, 2.25, 2.0446E-07
DataValue, 2.3000000000000003, 2.0614E-07
DataValue, 2.35, 2.074E-07
DataValue, 2.4, 2.0944E-07
DataValue, 2.45, 2.1296E-07
DataValue, 2.5, 2.1426E-07
DataValue, 2.5500000000000003, 2.1623999999999998E-07
DataValue, 2.6, 2.1802E-07
DataValue, 2.65, 2.2094E-07
DataValue, 2.7, 2.2298E-07
DataValue, 2.75, 2.2374E-07
DataValue, 2.8000000000000003, 2.2652E-07
DataValue, 2.85, 2.2832E-07
DataValue, 2.9, 2.308E-07
DataValue, 2.95, 2.33E-07
DataValue, 3, 2.3498E-07
DataValue, 3.0500000000000003, 2.368E-07
DataValue, 3.1, 2.3898E-07
DataValue, 3.15, 2.3932E-07
DataValue, 3.2, 2.3938E-07
DataValue, 3.25, 2.4308E-07
DataValue, 3.3000000000000003, 2.4465999999999997E-07
DataValue, 3.35, 2.4742E-07
DataValue, 3.4, 2.4798E-07
DataValue, 3.45, 2.486E-07
DataValue, 3.5, 2.5002E-07
DataValue, 3.5500000000000003, 2.5172E-07
DataValue, 3.6, 2.5292E-07
DataValue, 3.65, 2.539E-07
DataValue, 3.7, 2.5492E-07
DataValue, 3.75, 2.588E-07
DataValue, 3.8000000000000003, 2.6054E-07
DataValue, 3.85, 2.6042E-07
DataValue, 3.9, 2.6328E-07
DataValue, 3.95, 2.6442E-07
DataValue, 4, 2.6652E-07
DataValue, 4.05, 2.6714E-07
DataValue, 4.1, 2.689E-07
DataValue, 4.15, 2.7014E-07
DataValue, 4.2, 2.6977999999999997E-07
DataValue, 4.25, 2.7214E-07
DataValue, 4.3, 2.7424E-07
DataValue, 4.3500000000000005, 2.7508E-07
DataValue, 4.4, 2.7642E-07
DataValue, 4.45, 2.7746E-07
DataValue, 4.5, 2.7954E-07
DataValue, 4.55, 2.8056E-07
DataValue, 4.6000000000000005, 2.8256E-07
DataValue, 4.65, 2.8331999999999997E-07
DataValue, 4.7, 2.8588E-07
DataValue, 4.75, 2.8648E-07
DataValue, 4.8, 2.8726E-07
DataValue, 4.8500000000000005, 2.8774E-07
DataValue, 4.9, 2.8956E-07
DataValue, 4.95, 2.8938E-07
DataValue, 5, 2.9171999999999997E-07
DataValue, 5, 2.8918E-07
DataValue, 4.95, 2.8912E-07
DataValue, 4.9, 2.8555999999999997E-07
DataValue, 4.8500000000000005, 2.8638E-07
DataValue, 4.8, 2.8476E-07
DataValue, 4.75, 2.8394E-07
DataValue, 4.7, 2.8194E-07
DataValue, 4.65, 2.824E-07
DataValue, 4.6000000000000005, 2.8058E-07
DataValue, 4.55, 2.8074E-07
DataValue, 4.5, 2.7918E-07
DataValue, 4.45, 2.7928E-07
DataValue, 4.4, 2.7716E-07
DataValue, 4.3500000000000005, 2.7579999999999997E-07
DataValue, 4.3, 2.7648E-07
DataValue, 4.25, 2.7492E-07
DataValue, 4.2, 2.7278E-07
DataValue, 4.15, 2.7246E-07
DataValue, 4.1, 2.7136E-07
DataValue, 4.05, 2.7042E-07
DataValue, 4, 2.706E-07
DataValue, 3.95, 2.68E-07
DataValue, 3.9, 2.6638E-07
DataValue, 3.85, 2.6444E-07
DataValue, 3.8000000000000003, 2.6434E-07
DataValue, 3.75, 2.6138E-07
DataValue, 3.7, 2.5998E-07
DataValue, 3.65, 2.581E-07
DataValue, 3.6, 2.5874E-07
DataValue, 3.5500000000000003, 2.5682E-07
DataValue, 3.5, 2.5592E-07
DataValue, 3.45, 2.5396E-07
DataValue, 3.4, 2.5382E-07
DataValue, 3.35, 2.5172E-07
DataValue, 3.3000000000000003, 2.5072E-07
DataValue, 3.25, 2.5035999999999997E-07
DataValue, 3.2, 2.4792E-07
DataValue, 3.15, 2.4588E-07
DataValue, 3.1, 2.4339999999999997E-07
DataValue, 3.0500000000000003, 2.4176E-07
DataValue, 3, 2.388E-07
DataValue, 2.95, 2.3742E-07
DataValue, 2.9, 2.3806E-07
DataValue, 2.85, 2.3507999999999999E-07
DataValue, 2.8000000000000003, 2.3374E-07
DataValue, 2.75, 2.3024E-07
DataValue, 2.7, 2.3086E-07
DataValue, 2.65, 2.286E-07
DataValue, 2.6, 2.2823999999999998E-07
DataValue, 2.5500000000000003, 2.2736E-07
DataValue, 2.5, 2.2494E-07
DataValue, 2.45, 2.23E-07
DataValue, 2.4, 2.2124E-07
DataValue, 2.35, 2.2032E-07
DataValue, 2.3000000000000003, 2.1845999999999999E-07
DataValue, 2.25, 2.1772E-07
DataValue, 2.2, 2.1312E-07
DataValue, 2.15, 2.1214E-07
DataValue, 2.1, 2.1016E-07
DataValue, 2.05, 2.0701999999999998E-07
DataValue, 2, 2.075E-07
DataValue, 1.95, 2.0456E-07
DataValue, 1.9000000000000001, 2.029E-07
DataValue, 1.85, 2.0068E-07
DataValue, 1.8, 2.0066E-07
DataValue, 1.75, 1.9908E-07
DataValue, 1.7, 1.9692E-07
DataValue, 1.6500000000000001, 1.9494E-07
DataValue, 1.6, 1.9246E-07
DataValue, 1.55, 1.909E-07
DataValue, 1.5, 1.8798E-07
DataValue, 1.45, 1.8604E-07
DataValue, 1.4000000000000001, 1.8252E-07
DataValue, 1.35, 1.8033999999999999E-07
DataValue, 1.3, 1.7816E-07
DataValue, 1.25, 1.7587999999999998E-07
DataValue, 1.2, 1.7316E-07
DataValue, 1.1500000000000001, 1.7094E-07
DataValue, 1.1, 1.686E-07
DataValue, 1.05, 1.6606E-07
DataValue, 1, 1.6294E-07
DataValue, 0.95000000000000007, 1.6186E-07
DataValue, 0.9, 1.5886E-07
DataValue, 0.85, 1.5656E-07
DataValue, 0.8, 1.539E-07
DataValue, 0.75, 1.516E-07
DataValue, 0.70000000000000007, 1.4904E-07
DataValue, 0.65, 1.4464E-07
DataValue, 0.6, 1.4284E-07
DataValue, 0.55, 1.407E-07
DataValue, 0.5, 1.3694E-07
DataValue, 0.45, 1.3414E-07
DataValue, 0.4, 1.3092E-07
DataValue, 0.35000000000000003, 1.2792E-07
DataValue, 0.3, 1.2496E-07
DataValue, 0.25, 1.2254E-07
DataValue, 0.2, 1.1893999999999999E-07
DataValue, 0.15, 1.1716E-07
DataValue, 0.1, 1.1388E-07
DataValue, 0.05, 1.118E-07
DataValue, 0, 1.0982E-07
DataValue, -0.05, 1.0629999999999999E-07
DataValue, -0.1, 1.0308E-07
DataValue, -0.15, 1.0094E-07
DataValue, -0.2, 9.7310799999999993E-08
DataValue, -0.25, 9.3018599999999986E-08
DataValue, -0.3, 8.9281999999999992E-08
DataValue, -0.35000000000000003, 8.6204199999999993E-08
DataValue, -0.4, 8.2354E-08
DataValue, -0.45, 7.8940199999999988E-08
DataValue, -0.5, 7.52648E-08
DataValue, -0.55, 7.3835799999999989E-08
DataValue, -0.6, 7.0462999999999987E-08
DataValue, -0.65, 6.6743999999999992E-08
DataValue, -0.70000000000000007, 6.25734E-08
DataValue, -0.75, 5.96784E-08
DataValue, -0.8, 5.5859999999999992E-08
DataValue, -0.85, 5.1784599999999995E-08
DataValue, -0.9, 4.8883599999999994E-08
DataValue, -0.95000000000000007, 4.69534E-08
DataValue, -1, 4.4212399999999994E-08
DataValue, -1.05, 4.18108E-08
DataValue, -1.1, 3.86534E-08
DataValue, -1.1500000000000001, 3.59218E-08
DataValue, -1.2, 3.3793E-08
DataValue, -1.25, 3.0590199999999996E-08
DataValue, -1.3, 2.8692399999999998E-08
DataValue, -1.35, 2.65692E-08
DataValue, -1.4000000000000001, 2.3032599999999997E-08
DataValue, -1.45, 2.1772799999999998E-08
DataValue, -1.5, 1.96304E-08
DataValue, -1.55, 1.7556E-08
DataValue, -1.6, 1.6018599999999998E-08
DataValue, -1.6500000000000001, 1.4160599999999998E-08
DataValue, -1.7, 1.2233999999999999E-08
DataValue, -1.75, 1.1786999999999998E-08
DataValue, -1.8, 1.0743599999999998E-08
DataValue, -1.85, 9.8502E-09
DataValue, -1.9000000000000001, 9.604999999999999E-09
DataValue, -1.95, 8.263E-09
DataValue, -2, 8.1716E-09
DataValue, -2.05, 6.3212E-09
DataValue, -2.1, 5.932E-09
DataValue, -2.15, 5.608E-09
DataValue, -2.2, 5.0505E-09
DataValue, -2.25, 4.5801E-09
DataValue, -2.3000000000000003, 4.3011E-09
DataValue, -2.35, 3.9504E-09
DataValue, -2.4, 3.268E-09
DataValue, -2.45, 3.1221E-09
DataValue, -2.5, 2.9657E-09
DataValue, -2.5500000000000003, 2.4487E-09
DataValue, -2.6, 2.3001E-09
DataValue, -2.65, 2.1985E-09
DataValue, -2.7, 2.1266E-09
DataValue, -2.75, 1.9405E-09
DataValue, -2.8000000000000003, 1.8827E-09
DataValue, -2.85, 1.8237E-09
DataValue, -2.9, 1.7E-09
DataValue, -2.95, 1.6818E-09
DataValue, -3, 1.5735E-09
DataValue, -3.0500000000000003, 1.4407E-09
DataValue, -3.1, 1.446E-09
DataValue, -3.15, 1.3403E-09
DataValue, -3.2, 1.2643E-09
DataValue, -3.25, 1.1455E-09
DataValue, -3.3000000000000003, 1.1439E-09
DataValue, -3.35, 1.0135E-09
DataValue, -3.4, 9.165E-10
DataValue, -3.45, 8.5964E-10
DataValue, -3.5, 8.8590000000000012E-10
DataValue, -3.5500000000000003, 8.6606000000000011E-10
DataValue, -3.6, 8.5774000000000008E-10
DataValue, -3.65, 8.8232000000000011E-10
DataValue, -3.7, 7.7012E-10
DataValue, -3.75, 7.2527E-10
DataValue, -3.8000000000000003, 7.1631000000000008E-10
DataValue, -3.85, 6.6601000000000006E-10
DataValue, -3.9, 5.8857000000000007E-10
DataValue, -3.95, 5.8522000000000007E-10
DataValue, -4, 5.4323E-10
DataValue, -4.05, 5.3703000000000006E-10
DataValue, -4.1, 5.1356E-10
DataValue, -4.15, 5.0967000000000006E-10
DataValue, -4.2, 4.9535000000000005E-10
DataValue, -4.25, 4.9335000000000006E-10
DataValue, -4.3, 4.7941E-10
DataValue, -4.3500000000000005, 4.5357E-10
DataValue, -4.4, 4.4158000000000004E-10
DataValue, -4.45, 3.8878000000000003E-10
DataValue, -4.5, 4.0417E-10
DataValue, -4.55, 3.5686000000000005E-10
DataValue, -4.6000000000000005, 3.7524000000000004E-10
DataValue, -4.65, 3.6692E-10
DataValue, -4.7, 3.6935E-10
DataValue, -4.75, 3.6585000000000003E-10
DataValue, -4.8, 3.449E-10
DataValue, -4.8500000000000005, 3.4734E-10
DataValue, -4.9, 3.3010000000000003E-10
DataValue, -4.95, 3.2105000000000004E-10
