
SetupTitle, Transfer(1)
PrimitiveTest, I/V Sweep
TestParameter, Context.MainFrame, B1500A
TestParameter, Channel.UnitType, SMU, SMU
TestParameter, Channel.Unit, SMU1:HR, SMU2:HR
TestParameter, Channel.IName, Igs, Ids
TestParameter, Channel.VName, Vgs, Vds
TestParameter, Channel.Mode, V, V
TestParameter, Channel.Func, VAR1, VAR2
TestParameter, Channel.Index, 
TestParameter, Channel.Time, 
TestParameter, Measurement.Port.Unit, SMU1:HR, SMU2:HR
TestParameter, Measurement.Port.SeriesResistor, NONE, NONE
TestParameter, Measurement.Port.Filter, ON, ON
TestParameter, Measurement.Port.OutputVoltageComparison, 0, 0
TestParameter, Measurement.Primary.Locus, Double
TestParameter, Measurement.Primary.Scale, LINEAR
TestParameter, Measurement.Primary.Start, -5
TestParameter, Measurement.Primary.Stop, 5
TestParameter, Measurement.Primary.Step, 0.05
TestParameter, Measurement.Primary.Compliance, 0.05
TestParameter, Measurement.Primary.PowerCompliance, 0
TestParameter, Measurement.Aborting.Condition, STOP AT ANY ABNORMAL
TestParameter, Measurement.PostOutput.Value, START
TestParameter, Measurement.PostOutput.Retention, OFF
TestParameter, Measurement.Secondary.Start, 0.01
TestParameter, Measurement.Secondary.Count, 2
TestParameter, Measurement.Secondary.Step, 0.02
TestParameter, Measurement.Secondary.Compliance, 0.05
TestParameter, Measurement.Secondary.PowerCompliance, 0
TestParameter, Measurement.Bias.Source, -5, 0.01
TestParameter, Measurement.Bias.Compliance, 0.05, 0.05
TestParameter, Measurement.Monitor.Unit, SMU2:HR, SMU1:HR
TestParameter, Measurement.Monitor.Adc, HR ADC, HR ADC
TestParameter, Measurement.Monitor.Measurement, Compliance Side, Compliance Side
TestParameter, Measurement.Monitor.RangingMode, LIMITED, LIMITED
TestParameter, Measurement.Monitor.RangeBoundary, 100pA, 1nA
TestParameter, Measurement.Monitor.RangeRating, BY FULL RANGE, BY FULL RANGE
TestParameter, Measurement.Monitor.RangeRatingCoeff, 50, 50
TestParameter, Measurement.Timing.Hold, 0
TestParameter, Measurement.Timing.Delay, 0
TestParameter, Measurement.Adc.HighSpeed.Mode, AUTO
TestParameter, Measurement.Adc.HighSpeed.Coeff, 1
TestParameter, Measurement.Adc.HighResolution.AutoZero, OFF
TestParameter, Measurement.Adc.HighResolution.Mode, AUTO
TestParameter, Measurement.Adc.HighResolution.Coeff, 6
TestParameter, Measurement.WaitTime.Source.Coeff, 1
TestParameter, Measurement.WaitTime.Source.Offset, 0
TestParameter, Measurement.WaitTime.Monitor.Coeff, 1
TestParameter, Measurement.WaitTime.Monitor.Offset, 0
TestParameter, Output.Graph.Enabled, true
TestParameter, Output.Graph.AutoScaling, false
TestParameter, Output.Graph.XAxis.Data, Vgs
TestParameter, Output.Graph.XAxis.Scale, Linear
TestParameter, Output.Graph.XAxis.Left, -10
TestParameter, Output.Graph.XAxis.Right, 10
TestParameter, Output.Graph.XAxis.RunTimeAutoScale, true
TestParameter, Output.Graph.YAxis.Data, Ids
TestParameter, Output.Graph.YAxis.Scale, Linear
TestParameter, Output.Graph.YAxis.Bottom, -0.001
TestParameter, Output.Graph.YAxis.Top, 0.001
TestParameter, Output.Graph.YAxis.Group, 
TestParameter, Output.Graph.YAxis.RunTimeAutoScale, true
TestParameter, AutoAnalysis.Interpolation, false
TestParameter, AutoAnalysis.Line1.Enabled, false
TestParameter, AutoAnalysis.Line1.Type, 1
TestParameter, AutoAnalysis.Line1.Fix, True
TestParameter, AutoAnalysis.Line1.YAxis, 0
TestParameter, AutoAnalysis.Line1.Point1.Type, 0
TestParameter, AutoAnalysis.Line1.Point1.XY.X, 
TestParameter, AutoAnalysis.Line1.Point1.XY.Y, 
TestParameter, AutoAnalysis.Line1.Point1.Data.Var, 
TestParameter, AutoAnalysis.Line1.Point1.Data.Condition, 
TestParameter, AutoAnalysis.Line1.Point1.Data.Start, false
TestParameter, AutoAnalysis.Line1.Point1.Data.StartVar, 
TestParameter, AutoAnalysis.Line1.Point1.Data.StartCondition, 
TestParameter, AutoAnalysis.Line1.Point2.Type, 0
TestParameter, AutoAnalysis.Line1.Point2.XY.X, 
TestParameter, AutoAnalysis.Line1.Point2.XY.Y, 
TestParameter, AutoAnalysis.Line1.Point2.Data.Var, 
TestParameter, AutoAnalysis.Line1.Point2.Data.Condition, 
TestParameter, AutoAnalysis.Line1.Point2.Data.Start, false
TestParameter, AutoAnalysis.Line1.Point2.Data.StartVar, 
TestParameter, AutoAnalysis.Line1.Point2.Data.StartCondition, 
TestParameter, AutoAnalysis.Line1.GradientExpr, 0
TestParameter, AutoAnalysis.Line2.Enabled, false
TestParameter, AutoAnalysis.Line2.Type, 1
TestParameter, AutoAnalysis.Line2.Fix, True
TestParameter, AutoAnalysis.Line2.YAxis, 0
TestParameter, AutoAnalysis.Line2.Point1.Type, 0
TestParameter, AutoAnalysis.Line2.Point1.XY.X, 
TestParameter, AutoAnalysis.Line2.Point1.XY.Y, 
TestParameter, AutoAnalysis.Line2.Point1.Data.Var, 
TestParameter, AutoAnalysis.Line2.Point1.Data.Condition, 
TestParameter, AutoAnalysis.Line2.Point1.Data.Start, false
TestParameter, AutoAnalysis.Line2.Point1.Data.StartVar, 
TestParameter, AutoAnalysis.Line2.Point1.Data.StartCondition, 
TestParameter, AutoAnalysis.Line2.Point2.Type, 0
TestParameter, AutoAnalysis.Line2.Point2.XY.X, 
TestParameter, AutoAnalysis.Line2.Point2.XY.Y, 
TestParameter, AutoAnalysis.Line2.Point2.Data.Var, 
TestParameter, AutoAnalysis.Line2.Point2.Data.Condition, 
TestParameter, AutoAnalysis.Line2.Point2.Data.Start, false
TestParameter, AutoAnalysis.Line2.Point2.Data.StartVar, 
TestParameter, AutoAnalysis.Line2.Point2.Data.StartCondition, 
TestParameter, AutoAnalysis.Line2.GradientExpr, 0
TestParameter, AutoAnalysis.Marker.Enabled, false
TestParameter, AutoAnalysis.Marker.Data.Var, 
TestParameter, AutoAnalysis.Marker.Data.Condition, 
TestParameter, AutoAnalysis.Marker.Data.Start, false
TestParameter, AutoAnalysis.Marker.Data.StartVar, 
TestParameter, AutoAnalysis.Marker.Data.StartCondition, 
MetaData, TestRecord.EntryPoint, true
MetaData, TestRecord.RecordTime, 07/21/2020 19:44:44
MetaData, TestRecord.TestTarget, 0407c56
MetaData, TestRecord.IterationIndex, 49
MetaData, TestRecord.Preservation, true
MetaData, TestRecord.Flag, 
MetaData, TestRecord.Remarks, 
MetaData, TestRecord.LinkKey, 643a8388-1c3d-4253-93af-2501ef4a5135
Dimension1, 402, 402
Dimension2, 2, 2
DataName, Vgs, Ids
DataValue, -5, 2.9009E-09
DataValue, -4.95, 3.3432E-09
DataValue, -4.9, 3.8117E-09
DataValue, -4.8500000000000005, 4.0522E-09
DataValue, -4.8, 4.3735E-09
DataValue, -4.75, 4.8692E-09
DataValue, -4.7, 5.3991E-09
DataValue, -4.65, 6.2005E-09
DataValue, -4.6000000000000005, 6.0261E-09
DataValue, -4.55, 6.7944E-09
DataValue, -4.5, 8.2548E-09
DataValue, -4.45, 9.5036E-09
DataValue, -4.4, 1.01619E-08
DataValue, -4.3500000000000005, 1.01213E-08
DataValue, -4.3, 1.06898E-08
DataValue, -4.25, 1.2494E-08
DataValue, -4.2, 1.3824799999999999E-08
DataValue, -4.15, 1.4302999999999999E-08
DataValue, -4.1, 1.6535E-08
DataValue, -4.05, 1.8766199999999998E-08
DataValue, -4, 2.0495999999999997E-08
DataValue, -3.95, 2.1817199999999997E-08
DataValue, -3.9, 2.19732E-08
DataValue, -3.85, 2.41488E-08
DataValue, -3.8000000000000003, 2.6204399999999996E-08
DataValue, -3.75, 2.87238E-08
DataValue, -3.7, 2.9746199999999998E-08
DataValue, -3.65, 3.17024E-08
DataValue, -3.6, 3.4400599999999996E-08
DataValue, -3.5500000000000003, 3.5944999999999995E-08
DataValue, -3.5, 3.7924599999999995E-08
DataValue, -3.45, 4.0255199999999996E-08
DataValue, -3.4, 4.11694E-08
DataValue, -3.35, 4.5967E-08
DataValue, -3.3000000000000003, 4.87368E-08
DataValue, -3.25, 4.9880999999999995E-08
DataValue, -3.2, 5.2297999999999996E-08
DataValue, -3.15, 5.6467999999999993E-08
DataValue, -3.1, 5.98764E-08
DataValue, -3.0500000000000003, 6.05464E-08
DataValue, -3, 6.37066E-08
DataValue, -2.95, 6.7624399999999992E-08
DataValue, -2.9, 7.24442E-08
DataValue, -2.85, 7.58224E-08
DataValue, -2.8000000000000003, 7.76564E-08
DataValue, -2.75, 7.94548E-08
DataValue, -2.7, 8.19056E-08
DataValue, -2.65, 8.800359999999999E-08
DataValue, -2.6, 9.1957399999999989E-08
DataValue, -2.5500000000000003, 9.454399999999999E-08
DataValue, -2.5, 9.7785999999999986E-08
DataValue, -2.45, 1.0430639999999999E-07
DataValue, -2.4, 1.100852E-07
DataValue, -2.35, 1.1408319999999999E-07
DataValue, -2.3000000000000003, 1.1411999999999999E-07
DataValue, -2.25, 1.1682E-07
DataValue, -2.2, 1.2398E-07
DataValue, -2.15, 1.2566E-07
DataValue, -2.1, 1.3322E-07
DataValue, -2.05, 1.3928E-07
DataValue, -2, 1.4382E-07
DataValue, -1.95, 1.507E-07
DataValue, -1.9000000000000001, 1.5736E-07
DataValue, -1.85, 1.6382E-07
DataValue, -1.8, 1.7036E-07
DataValue, -1.75, 1.785E-07
DataValue, -1.7, 1.8428E-07
DataValue, -1.6500000000000001, 1.8997999999999999E-07
DataValue, -1.6, 1.9544E-07
DataValue, -1.55, 2.0272E-07
DataValue, -1.5, 2.0984E-07
DataValue, -1.45, 2.1581999999999998E-07
DataValue, -1.4000000000000001, 2.2192E-07
DataValue, -1.35, 2.2996E-07
DataValue, -1.3, 2.3744E-07
DataValue, -1.25, 2.436E-07
DataValue, -1.2, 2.4972E-07
DataValue, -1.1500000000000001, 2.5816E-07
DataValue, -1.1, 2.6468E-07
DataValue, -1.05, 2.6854E-07
DataValue, -1, 2.7474E-07
DataValue, -0.95000000000000007, 2.8074E-07
DataValue, -0.9, 2.8518E-07
DataValue, -0.85, 2.9498E-07
DataValue, -0.8, 2.9786E-07
DataValue, -0.75, 3.014E-07
DataValue, -0.70000000000000007, 3.066E-07
DataValue, -0.65, 3.1426E-07
DataValue, -0.6, 3.2196E-07
DataValue, -0.55, 3.2778E-07
DataValue, -0.5, 3.3404E-07
DataValue, -0.45, 3.4064E-07
DataValue, -0.4, 3.4496E-07
DataValue, -0.35000000000000003, 3.5046E-07
DataValue, -0.3, 3.5864E-07
DataValue, -0.25, 3.6501999999999997E-07
DataValue, -0.2, 3.6912E-07
DataValue, -0.15, 3.7598E-07
DataValue, -0.1, 3.8054E-07
DataValue, -0.05, 3.8616E-07
DataValue, 0, 3.9272E-07
DataValue, 0.05, 3.9951999999999997E-07
DataValue, 0.1, 4.0324E-07
DataValue, 0.15, 4.0922E-07
DataValue, 0.2, 4.1596E-07
DataValue, 0.25, 4.2136E-07
DataValue, 0.3, 4.2978E-07
DataValue, 0.35000000000000003, 4.3726E-07
DataValue, 0.4, 4.4296E-07
DataValue, 0.45, 4.509E-07
DataValue, 0.5, 4.5829999999999997E-07
DataValue, 0.55, 4.6483999999999997E-07
DataValue, 0.6, 4.6959999999999997E-07
DataValue, 0.65, 4.734E-07
DataValue, 0.70000000000000007, 4.8178E-07
DataValue, 0.75, 4.872E-07
DataValue, 0.8, 4.9506E-07
DataValue, 0.85, 5.0064E-07
DataValue, 0.9, 5.0572E-07
DataValue, 0.95000000000000007, 5.1092E-07
DataValue, 1, 5.1552E-07
DataValue, 1.05, 5.214E-07
DataValue, 1.1, 5.2566E-07
DataValue, 1.1500000000000001, 5.309E-07
DataValue, 1.2, 5.3692E-07
DataValue, 1.25, 5.4028E-07
DataValue, 1.3, 5.4726E-07
DataValue, 1.35, 5.5016E-07
DataValue, 1.4000000000000001, 5.5522E-07
DataValue, 1.45, 5.6284E-07
DataValue, 1.5, 5.6204E-07
DataValue, 1.55, 5.7024E-07
DataValue, 1.6, 5.7378E-07
DataValue, 1.6500000000000001, 5.7804E-07
DataValue, 1.7, 5.8168E-07
DataValue, 1.75, 5.9048E-07
DataValue, 1.8, 5.9466E-07
DataValue, 1.85, 5.9828E-07
DataValue, 1.9000000000000001, 5.9826E-07
DataValue, 1.95, 6.0206E-07
DataValue, 2, 6.104E-07
DataValue, 2.05, 6.1176E-07
DataValue, 2.1, 6.157E-07
DataValue, 2.15, 6.1934E-07
DataValue, 2.2, 6.247E-07
DataValue, 2.25, 6.3E-07
DataValue, 2.3000000000000003, 6.3364E-07
DataValue, 2.35, 6.3894E-07
DataValue, 2.4, 6.4328E-07
DataValue, 2.45, 6.4655999999999993E-07
DataValue, 2.5, 6.5202E-07
DataValue, 2.5500000000000003, 6.5318E-07
DataValue, 2.6, 6.5596E-07
DataValue, 2.65, 6.6355999999999994E-07
DataValue, 2.7, 6.6554E-07
DataValue, 2.75, 6.6866E-07
DataValue, 2.8000000000000003, 6.707E-07
DataValue, 2.85, 6.7528E-07
DataValue, 2.9, 6.7849999999999994E-07
DataValue, 2.95, 6.8212E-07
DataValue, 3, 6.863E-07
DataValue, 3.0500000000000003, 6.8936E-07
DataValue, 3.1, 6.9136E-07
DataValue, 3.15, 6.934E-07
DataValue, 3.2, 6.9728E-07
DataValue, 3.25, 7.016E-07
DataValue, 3.3000000000000003, 7.0304E-07
DataValue, 3.35, 7.0634E-07
DataValue, 3.4, 7.097E-07
DataValue, 3.45, 7.145E-07
DataValue, 3.5, 7.1644E-07
DataValue, 3.5500000000000003, 7.1922E-07
DataValue, 3.6, 7.2212E-07
DataValue, 3.65, 7.2746E-07
DataValue, 3.7, 7.285E-07
DataValue, 3.75, 7.3432E-07
DataValue, 3.8000000000000003, 7.3476E-07
DataValue, 3.85, 7.4E-07
DataValue, 3.9, 7.4126E-07
DataValue, 3.95, 7.4714E-07
DataValue, 4, 7.5076E-07
DataValue, 4.05, 7.4962E-07
DataValue, 4.1, 7.5004E-07
DataValue, 4.15, 7.5442E-07
DataValue, 4.2, 7.5582E-07
DataValue, 4.25, 7.6068E-07
DataValue, 4.3, 7.6466E-07
DataValue, 4.3500000000000005, 7.6672E-07
DataValue, 4.4, 7.6818E-07
DataValue, 4.45, 7.7052E-07
DataValue, 4.5, 7.7144E-07
DataValue, 4.55, 7.759E-07
DataValue, 4.6000000000000005, 7.7658E-07
DataValue, 4.65, 7.7922E-07
DataValue, 4.7, 7.7958E-07
DataValue, 4.75, 7.7834E-07
DataValue, 4.8, 7.8594E-07
DataValue, 4.8500000000000005, 7.8514E-07
DataValue, 4.9, 7.8814E-07
DataValue, 4.95, 7.8974E-07
DataValue, 5, 7.906E-07
DataValue, 5, 7.9228E-07
DataValue, 4.95, 7.9034E-07
DataValue, 4.9, 7.8895999999999994E-07
DataValue, 4.8500000000000005, 7.8508E-07
DataValue, 4.8, 7.8409999999999993E-07
DataValue, 4.75, 7.809E-07
DataValue, 4.7, 7.8014E-07
DataValue, 4.65, 7.7984E-07
DataValue, 4.6000000000000005, 7.7719999999999994E-07
DataValue, 4.55, 7.7326E-07
DataValue, 4.5, 7.6971999999999993E-07
DataValue, 4.45, 7.6638E-07
DataValue, 4.4, 7.6236E-07
DataValue, 4.3500000000000005, 7.5842E-07
DataValue, 4.3, 7.5536E-07
DataValue, 4.25, 7.5498E-07
DataValue, 4.2, 7.4958E-07
DataValue, 4.15, 7.4726E-07
DataValue, 4.1, 7.4329999999999994E-07
DataValue, 4.05, 7.403E-07
DataValue, 4, 7.3562E-07
DataValue, 3.95, 7.3614E-07
DataValue, 3.9, 7.3143999999999994E-07
DataValue, 3.85, 7.2806E-07
DataValue, 3.8000000000000003, 7.2522E-07
DataValue, 3.75, 7.2176E-07
DataValue, 3.7, 7.1964E-07
DataValue, 3.65, 7.133E-07
DataValue, 3.6, 7.118E-07
DataValue, 3.5500000000000003, 7.1122E-07
DataValue, 3.5, 7.0524E-07
DataValue, 3.45, 7.0406E-07
DataValue, 3.4, 6.9816E-07
DataValue, 3.35, 6.9718E-07
DataValue, 3.3000000000000003, 6.9212E-07
DataValue, 3.25, 6.8814E-07
DataValue, 3.2, 6.8542E-07
DataValue, 3.15, 6.82E-07
DataValue, 3.1, 6.7597999999999994E-07
DataValue, 3.0500000000000003, 6.7102E-07
DataValue, 3, 6.6868E-07
DataValue, 2.95, 6.6388E-07
DataValue, 2.9, 6.5922E-07
DataValue, 2.85, 6.5792E-07
DataValue, 2.8000000000000003, 6.5204E-07
DataValue, 2.75, 6.4665999999999994E-07
DataValue, 2.7, 6.455E-07
DataValue, 2.65, 6.3924E-07
DataValue, 2.6, 6.3674E-07
DataValue, 2.5500000000000003, 6.3234E-07
DataValue, 2.5, 6.2863999999999994E-07
DataValue, 2.45, 6.245E-07
DataValue, 2.4, 6.2058E-07
DataValue, 2.35, 6.1694E-07
DataValue, 2.3000000000000003, 6.0872E-07
DataValue, 2.25, 6.082E-07
DataValue, 2.2, 6.0014E-07
DataValue, 2.15, 5.9798E-07
DataValue, 2.1, 5.9326E-07
DataValue, 2.05, 5.857E-07
DataValue, 2, 5.8256E-07
DataValue, 1.95, 5.7762E-07
DataValue, 1.9000000000000001, 5.7266E-07
DataValue, 1.85, 5.6676E-07
DataValue, 1.8, 5.6382E-07
DataValue, 1.75, 5.602E-07
DataValue, 1.7, 5.5136E-07
DataValue, 1.6500000000000001, 5.4538E-07
DataValue, 1.6, 5.42E-07
DataValue, 1.55, 5.3486E-07
DataValue, 1.5, 5.2954E-07
DataValue, 1.45, 5.218E-07
DataValue, 1.4000000000000001, 5.1856E-07
DataValue, 1.35, 5.1338E-07
DataValue, 1.3, 5.1112E-07
DataValue, 1.25, 5.0336E-07
DataValue, 1.2, 4.9944E-07
DataValue, 1.1500000000000001, 4.9356E-07
DataValue, 1.1, 4.8724E-07
DataValue, 1.05, 4.7876E-07
DataValue, 1, 4.74E-07
DataValue, 0.95000000000000007, 4.6874E-07
DataValue, 0.9, 4.6154E-07
DataValue, 0.85, 4.5478E-07
DataValue, 0.8, 4.4698E-07
DataValue, 0.75, 4.4251999999999997E-07
DataValue, 0.70000000000000007, 4.3453999999999997E-07
DataValue, 0.65, 4.2986E-07
DataValue, 0.6, 4.2216E-07
DataValue, 0.55, 4.1683999999999997E-07
DataValue, 0.5, 4.0932E-07
DataValue, 0.45, 4.039E-07
DataValue, 0.4, 3.9578E-07
DataValue, 0.35000000000000003, 3.9176E-07
DataValue, 0.3, 3.8317999999999997E-07
DataValue, 0.25, 3.7466E-07
DataValue, 0.2, 3.6666E-07
DataValue, 0.15, 3.6128E-07
DataValue, 0.1, 3.5446E-07
DataValue, 0.05, 3.48E-07
DataValue, 0, 3.401E-07
DataValue, -0.05, 3.3372E-07
DataValue, -0.1, 3.2612E-07
DataValue, -0.15, 3.207E-07
DataValue, -0.2, 3.1498E-07
DataValue, -0.25, 3.0588E-07
DataValue, -0.3, 3.021E-07
DataValue, -0.35000000000000003, 2.9344E-07
DataValue, -0.4, 2.8552E-07
DataValue, -0.45, 2.7942E-07
DataValue, -0.5, 2.7145999999999997E-07
DataValue, -0.55, 2.6432E-07
DataValue, -0.6, 2.5766E-07
DataValue, -0.65, 2.4878E-07
DataValue, -0.70000000000000007, 2.4157999999999997E-07
DataValue, -0.75, 2.3414E-07
DataValue, -0.8, 2.2718E-07
DataValue, -0.85, 2.2054E-07
DataValue, -0.9, 2.162E-07
DataValue, -0.95000000000000007, 2.0696E-07
DataValue, -1, 2.0054E-07
DataValue, -1.05, 1.9692E-07
DataValue, -1.1, 1.9154E-07
DataValue, -1.1500000000000001, 1.8282E-07
DataValue, -1.2, 1.7754E-07
DataValue, -1.25, 1.7139999999999999E-07
DataValue, -1.3, 1.6564E-07
DataValue, -1.35, 1.5918E-07
DataValue, -1.4000000000000001, 1.524E-07
DataValue, -1.45, 1.4792E-07
DataValue, -1.5, 1.4172E-07
DataValue, -1.55, 1.3758E-07
DataValue, -1.6, 1.3162E-07
DataValue, -1.6500000000000001, 1.2316E-07
DataValue, -1.7, 1.1868E-07
DataValue, -1.75, 1.1358E-07
DataValue, -1.8, 1.083E-07
DataValue, -1.85, 1.0236E-07
DataValue, -1.9000000000000001, 9.7320199999999985E-08
DataValue, -1.95, 9.2554E-08
DataValue, -2, 8.9480399999999986E-08
DataValue, -2.05, 8.8511999999999992E-08
DataValue, -2.1, 8.3523999999999987E-08
DataValue, -2.15, 7.6576E-08
DataValue, -2.2, 7.3430799999999993E-08
DataValue, -2.25, 7.1674399999999992E-08
DataValue, -2.3000000000000003, 6.79312E-08
DataValue, -2.35, 6.37172E-08
DataValue, -2.4, 6.3664399999999989E-08
DataValue, -2.45, 5.8048799999999995E-08
DataValue, -2.5, 5.5324599999999992E-08
DataValue, -2.5500000000000003, 5.3524199999999994E-08
DataValue, -2.6, 5.2417799999999996E-08
DataValue, -2.65, 5.0802999999999995E-08
DataValue, -2.7, 4.8447799999999994E-08
DataValue, -2.75, 4.55108E-08
DataValue, -2.8000000000000003, 4.22822E-08
DataValue, -2.85, 4.12936E-08
DataValue, -2.9, 3.8397799999999993E-08
DataValue, -2.95, 3.7810999999999994E-08
DataValue, -3, 3.57708E-08
DataValue, -3.0500000000000003, 3.4238399999999994E-08
DataValue, -3.1, 3.2662199999999996E-08
DataValue, -3.15, 2.9757999999999998E-08
DataValue, -3.2, 2.8104799999999998E-08
DataValue, -3.25, 2.6005999999999998E-08
DataValue, -3.3000000000000003, 2.3656999999999998E-08
DataValue, -3.35, 2.2271799999999998E-08
DataValue, -3.4, 2.1014E-08
DataValue, -3.45, 1.92014E-08
DataValue, -3.5, 1.5929799999999997E-08
DataValue, -3.5500000000000003, 1.6185999999999997E-08
DataValue, -3.6, 1.5147999999999998E-08
DataValue, -3.65, 1.4542599999999998E-08
DataValue, -3.7, 1.36216E-08
DataValue, -3.75, 1.1946199999999999E-08
DataValue, -3.8000000000000003, 1.2308399999999999E-08
DataValue, -3.85, 1.13802E-08
DataValue, -3.9, 1.0195199999999999E-08
DataValue, -3.95, 9.9021999999999992E-09
DataValue, -4, 9.76E-09
DataValue, -4.05, 9.1345999999999986E-09
DataValue, -4.1, 7.4349E-09
DataValue, -4.15, 7.8748E-09
DataValue, -4.2, 7.3497999999999996E-09
DataValue, -4.25, 6.7549E-09
DataValue, -4.3, 6.449E-09
DataValue, -4.3500000000000005, 5.929E-09
DataValue, -4.4, 5.9025E-09
DataValue, -4.45, 5.4077E-09
DataValue, -4.5, 5.1446E-09
DataValue, -4.55, 4.8445E-09
DataValue, -4.6000000000000005, 5.12E-09
DataValue, -4.65, 4.2404E-09
DataValue, -4.7, 3.9482E-09
DataValue, -4.75, 4.0518E-09
DataValue, -4.8, 3.3484E-09
DataValue, -4.8500000000000005, 3.1864E-09
DataValue, -4.9, 3.0721999999999998E-09
DataValue, -4.95, 3.12E-09
DataValue, -5, 2.914E-09
DataValue, -5, 3.10308E-08
DataValue, -4.95, 3.2726E-08
DataValue, -4.9, 3.48172E-08
DataValue, -4.8500000000000005, 3.69372E-08
DataValue, -4.8, 4.3997599999999993E-08
DataValue, -4.75, 4.88428E-08
DataValue, -4.7, 5.3950199999999994E-08
