
SetupTitle, Transfer(1)
PrimitiveTest, I/V Sweep
TestParameter, Context.MainFrame, B1500A
TestParameter, Channel.UnitType, SMU, SMU
TestParameter, Channel.Unit, SMU1:HR, SMU2:HR
TestParameter, Channel.IName, Igs, Ids
TestParameter, Channel.VName, Vgs, Vds
TestParameter, Channel.Mode, V, V
TestParameter, Channel.Func, VAR1, VAR2
TestParameter, Channel.Index, 
TestParameter, Channel.Time, 
TestParameter, Measurement.Port.Unit, SMU1:HR, SMU2:HR
TestParameter, Measurement.Port.SeriesResistor, NONE, NONE
TestParameter, Measurement.Port.Filter, ON, ON
TestParameter, Measurement.Port.OutputVoltageComparison, 0, 0
TestParameter, Measurement.Primary.Locus, Double
TestParameter, Measurement.Primary.Scale, LINEAR
TestParameter, Measurement.Primary.Start, -5
TestParameter, Measurement.Primary.Stop, 5
TestParameter, Measurement.Primary.Step, 0.05
TestParameter, Measurement.Primary.Compliance, 0.05
TestParameter, Measurement.Primary.PowerCompliance, 0
TestParameter, Measurement.Aborting.Condition, STOP AT ANY ABNORMAL
TestParameter, Measurement.PostOutput.Value, START
TestParameter, Measurement.PostOutput.Retention, OFF
TestParameter, Measurement.Secondary.Start, 0.01
TestParameter, Measurement.Secondary.Count, 2
TestParameter, Measurement.Secondary.Step, 0.02
TestParameter, Measurement.Secondary.Compliance, 0.05
TestParameter, Measurement.Secondary.PowerCompliance, 0
TestParameter, Measurement.Bias.Source, -5, 0.01
TestParameter, Measurement.Bias.Compliance, 0.05, 0.05
TestParameter, Measurement.Monitor.Unit, SMU2:HR, SMU1:HR
TestParameter, Measurement.Monitor.Adc, HR ADC, HR ADC
TestParameter, Measurement.Monitor.Measurement, Compliance Side, Compliance Side
TestParameter, Measurement.Monitor.RangingMode, LIMITED, LIMITED
TestParameter, Measurement.Monitor.RangeBoundary, 100pA, 1nA
TestParameter, Measurement.Monitor.RangeRating, BY FULL RANGE, BY FULL RANGE
TestParameter, Measurement.Monitor.RangeRatingCoeff, 50, 50
TestParameter, Measurement.Timing.Hold, 0
TestParameter, Measurement.Timing.Delay, 0
TestParameter, Measurement.Adc.HighSpeed.Mode, AUTO
TestParameter, Measurement.Adc.HighSpeed.Coeff, 1
TestParameter, Measurement.Adc.HighResolution.AutoZero, OFF
TestParameter, Measurement.Adc.HighResolution.Mode, AUTO
TestParameter, Measurement.Adc.HighResolution.Coeff, 6
TestParameter, Measurement.WaitTime.Source.Coeff, 1
TestParameter, Measurement.WaitTime.Source.Offset, 0
TestParameter, Measurement.WaitTime.Monitor.Coeff, 1
TestParameter, Measurement.WaitTime.Monitor.Offset, 0
TestParameter, Output.Graph.Enabled, true
TestParameter, Output.Graph.AutoScaling, false
TestParameter, Output.Graph.XAxis.Data, Vgs
TestParameter, Output.Graph.XAxis.Scale, Linear
TestParameter, Output.Graph.XAxis.Left, -10
TestParameter, Output.Graph.XAxis.Right, 10
TestParameter, Output.Graph.XAxis.RunTimeAutoScale, true
TestParameter, Output.Graph.YAxis.Data, Ids
TestParameter, Output.Graph.YAxis.Scale, Linear
TestParameter, Output.Graph.YAxis.Bottom, -0.001
TestParameter, Output.Graph.YAxis.Top, 0.001
TestParameter, Output.Graph.YAxis.Group, 
TestParameter, Output.Graph.YAxis.RunTimeAutoScale, true
TestParameter, AutoAnalysis.Interpolation, false
TestParameter, AutoAnalysis.Line1.Enabled, false
TestParameter, AutoAnalysis.Line1.Type, 1
TestParameter, AutoAnalysis.Line1.Fix, True
TestParameter, AutoAnalysis.Line1.YAxis, 0
TestParameter, AutoAnalysis.Line1.Point1.Type, 0
TestParameter, AutoAnalysis.Line1.Point1.XY.X, 
TestParameter, AutoAnalysis.Line1.Point1.XY.Y, 
TestParameter, AutoAnalysis.Line1.Point1.Data.Var, 
TestParameter, AutoAnalysis.Line1.Point1.Data.Condition, 
TestParameter, AutoAnalysis.Line1.Point1.Data.Start, false
TestParameter, AutoAnalysis.Line1.Point1.Data.StartVar, 
TestParameter, AutoAnalysis.Line1.Point1.Data.StartCondition, 
TestParameter, AutoAnalysis.Line1.Point2.Type, 0
TestParameter, AutoAnalysis.Line1.Point2.XY.X, 
TestParameter, AutoAnalysis.Line1.Point2.XY.Y, 
TestParameter, AutoAnalysis.Line1.Point2.Data.Var, 
TestParameter, AutoAnalysis.Line1.Point2.Data.Condition, 
TestParameter, AutoAnalysis.Line1.Point2.Data.Start, false
TestParameter, AutoAnalysis.Line1.Point2.Data.StartVar, 
TestParameter, AutoAnalysis.Line1.Point2.Data.StartCondition, 
TestParameter, AutoAnalysis.Line1.GradientExpr, 0
TestParameter, AutoAnalysis.Line2.Enabled, false
TestParameter, AutoAnalysis.Line2.Type, 1
TestParameter, AutoAnalysis.Line2.Fix, True
TestParameter, AutoAnalysis.Line2.YAxis, 0
TestParameter, AutoAnalysis.Line2.Point1.Type, 0
TestParameter, AutoAnalysis.Line2.Point1.XY.X, 
TestParameter, AutoAnalysis.Line2.Point1.XY.Y, 
TestParameter, AutoAnalysis.Line2.Point1.Data.Var, 
TestParameter, AutoAnalysis.Line2.Point1.Data.Condition, 
TestParameter, AutoAnalysis.Line2.Point1.Data.Start, false
TestParameter, AutoAnalysis.Line2.Point1.Data.StartVar, 
TestParameter, AutoAnalysis.Line2.Point1.Data.StartCondition, 
TestParameter, AutoAnalysis.Line2.Point2.Type, 0
TestParameter, AutoAnalysis.Line2.Point2.XY.X, 
TestParameter, AutoAnalysis.Line2.Point2.XY.Y, 
TestParameter, AutoAnalysis.Line2.Point2.Data.Var, 
TestParameter, AutoAnalysis.Line2.Point2.Data.Condition, 
TestParameter, AutoAnalysis.Line2.Point2.Data.Start, false
TestParameter, AutoAnalysis.Line2.Point2.Data.StartVar, 
TestParameter, AutoAnalysis.Line2.Point2.Data.StartCondition, 
TestParameter, AutoAnalysis.Line2.GradientExpr, 0
TestParameter, AutoAnalysis.Marker.Enabled, false
TestParameter, AutoAnalysis.Marker.Data.Var, 
TestParameter, AutoAnalysis.Marker.Data.Condition, 
TestParameter, AutoAnalysis.Marker.Data.Start, false
TestParameter, AutoAnalysis.Marker.Data.StartVar, 
TestParameter, AutoAnalysis.Marker.Data.StartCondition, 
MetaData, TestRecord.EntryPoint, true
MetaData, TestRecord.RecordTime, 07/21/2020 19:35:29
MetaData, TestRecord.TestTarget, 0413d56
MetaData, TestRecord.IterationIndex, 39
MetaData, TestRecord.Preservation, true
MetaData, TestRecord.Flag, 
MetaData, TestRecord.Remarks, 
MetaData, TestRecord.LinkKey, 29f6aafb-491f-4dd8-b9e1-c5e969985658
Dimension1, 402, 402
Dimension2, 2, 2
DataName, Vgs, Ids
DataValue, -5, 1.6011E-10
DataValue, -4.95, 1.2701E-10
DataValue, -4.9, 1.1968000000000002E-10
DataValue, -4.8500000000000005, 1.3121E-10
DataValue, -4.8, 1.0573E-10
DataValue, -4.75, 1.0278E-10
DataValue, -4.7, 1.0490000000000001E-10
DataValue, -4.65, 1.0743000000000001E-10
DataValue, -4.6000000000000005, 1.0896E-10
DataValue, -4.55, 1.0012000000000001E-10
DataValue, -4.5, 1.1901E-10
DataValue, -4.45, 1.1184000000000001E-10
DataValue, -4.4, 1.0831000000000001E-10
DataValue, -4.3500000000000005, 1.2042E-10
DataValue, -4.3, 1.0294000000000001E-10
DataValue, -4.25, 1.3189000000000002E-10
DataValue, -4.2, 1.1435000000000001E-10
DataValue, -4.15, 1.4152000000000002E-10
DataValue, -4.1, 1.2305E-10
DataValue, -4.05, 1.5426000000000002E-10
DataValue, -4, 1.513E-10
DataValue, -3.95, 1.8655000000000002E-10
DataValue, -3.9, 1.7005000000000002E-10
DataValue, -3.85, 1.9759E-10
DataValue, -3.8000000000000003, 1.8640000000000002E-10
DataValue, -3.75, 1.7598000000000002E-10
DataValue, -3.7, 1.9054000000000002E-10
DataValue, -3.65, 2.0852000000000002E-10
DataValue, -3.6, 2.2577E-10
DataValue, -3.5500000000000003, 2.6148E-10
DataValue, -3.5, 2.6490000000000004E-10
DataValue, -3.45, 3.3065000000000004E-10
DataValue, -3.4, 3.6836E-10
DataValue, -3.35, 3.8519000000000004E-10
DataValue, -3.3000000000000003, 4.5806E-10
DataValue, -3.25, 4.3507000000000003E-10
DataValue, -3.2, 5.1765000000000007E-10
DataValue, -3.15, 5.4297E-10
DataValue, -3.1, 5.5997000000000008E-10
DataValue, -3.0500000000000003, 6.6378000000000006E-10
DataValue, -3, 7.7235E-10
DataValue, -2.95, 8.2457000000000008E-10
DataValue, -2.9, 9.2144000000000008E-10
DataValue, -2.85, 9.3587E-10
DataValue, -2.8000000000000003, 9.9176E-10
DataValue, -2.75, 1.0012900000000002E-09
DataValue, -2.7, 1.2319E-09
DataValue, -2.65, 1.4578E-09
DataValue, -2.6, 1.4925E-09
DataValue, -2.5500000000000003, 1.6203E-09
DataValue, -2.5, 1.6892E-09
DataValue, -2.45, 1.8136E-09
DataValue, -2.4, 2.1467E-09
DataValue, -2.35, 2.0759E-09
DataValue, -2.3000000000000003, 2.337E-09
DataValue, -2.25, 2.6664E-09
DataValue, -2.2, 3.0852E-09
DataValue, -2.15, 3.5359E-09
DataValue, -2.1, 3.5797E-09
DataValue, -2.05, 4.2561E-09
DataValue, -2, 4.2773E-09
DataValue, -1.95, 4.6168E-09
DataValue, -1.9000000000000001, 4.9465E-09
DataValue, -1.85, 5.7302E-09
DataValue, -1.8, 5.921E-09
DataValue, -1.75, 6.7686E-09
DataValue, -1.7, 7.2138E-09
DataValue, -1.6500000000000001, 8.1286E-09
DataValue, -1.6, 8.5401E-09
DataValue, -1.55, 9.32E-09
DataValue, -1.5, 9.5447E-09
DataValue, -1.45, 1.04426E-08
DataValue, -1.4000000000000001, 1.09755E-08
DataValue, -1.35, 1.2169999999999999E-08
DataValue, -1.3, 1.3227799999999999E-08
DataValue, -1.25, 1.41176E-08
DataValue, -1.2, 1.52748E-08
DataValue, -1.1500000000000001, 1.6672399999999997E-08
DataValue, -1.1, 1.74594E-08
DataValue, -1.05, 1.87708E-08
DataValue, -1, 2.03692E-08
DataValue, -0.95000000000000007, 2.0612199999999997E-08
DataValue, -0.9, 2.29966E-08
DataValue, -0.85, 2.4713599999999997E-08
DataValue, -0.8, 2.6642399999999996E-08
DataValue, -0.75, 2.9000999999999996E-08
DataValue, -0.70000000000000007, 3.1065399999999996E-08
DataValue, -0.65, 3.36098E-08
DataValue, -0.6, 3.61476E-08
DataValue, -0.55, 3.86676E-08
DataValue, -0.5, 4.0615599999999996E-08
DataValue, -0.45, 4.3268399999999996E-08
DataValue, -0.4, 4.6493199999999996E-08
DataValue, -0.35000000000000003, 4.8981599999999993E-08
DataValue, -0.3, 5.1295199999999995E-08
DataValue, -0.25, 5.2372999999999995E-08
DataValue, -0.2, 5.6477E-08
DataValue, -0.15, 5.9163999999999993E-08
DataValue, -0.1, 6.10146E-08
DataValue, -0.05, 6.3637999999999991E-08
DataValue, 0, 6.58882E-08
DataValue, 0.05, 6.88066E-08
DataValue, 0.1, 7.15078E-08
DataValue, 0.15, 7.40192E-08
DataValue, 0.2, 7.7012799999999992E-08
DataValue, 0.25, 7.96394E-08
DataValue, 0.3, 8.1582199999999993E-08
DataValue, 0.35000000000000003, 8.46476E-08
DataValue, 0.4, 8.7513999999999985E-08
DataValue, 0.45, 8.9451999999999986E-08
DataValue, 0.5, 9.2952999999999985E-08
DataValue, 0.55, 9.65592E-08
DataValue, 0.6, 9.8607399999999986E-08
DataValue, 0.65, 1.0136519999999999E-07
DataValue, 0.70000000000000007, 1.045914E-07
DataValue, 0.75, 1.068488E-07
DataValue, 0.8, 1.0980579999999999E-07
DataValue, 0.85, 1.135576E-07
DataValue, 0.9, 1.1532E-07
DataValue, 0.95000000000000007, 1.1776E-07
DataValue, 1, 1.1987999999999999E-07
DataValue, 1.05, 1.2168E-07
DataValue, 1.1, 1.247E-07
DataValue, 1.1500000000000001, 1.2769999999999999E-07
DataValue, 1.2, 1.2898E-07
DataValue, 1.25, 1.3096E-07
DataValue, 1.3, 1.3382E-07
DataValue, 1.35, 1.3677999999999999E-07
DataValue, 1.4000000000000001, 1.3858E-07
DataValue, 1.45, 1.4004E-07
DataValue, 1.5, 1.4228E-07
DataValue, 1.55, 1.433E-07
DataValue, 1.6, 1.4614E-07
DataValue, 1.6500000000000001, 1.481E-07
DataValue, 1.7, 1.5096E-07
DataValue, 1.75, 1.5213999999999999E-07
DataValue, 1.8, 1.5353999999999998E-07
DataValue, 1.85, 1.5726E-07
DataValue, 1.9000000000000001, 1.5858E-07
DataValue, 1.95, 1.609E-07
DataValue, 2, 1.6216E-07
DataValue, 2.05, 1.6422E-07
DataValue, 2.1, 1.6567999999999999E-07
DataValue, 2.15, 1.6768E-07
DataValue, 2.2, 1.7066E-07
DataValue, 2.25, 1.7083999999999999E-07
DataValue, 2.3000000000000003, 1.7178E-07
DataValue, 2.35, 1.757E-07
DataValue, 2.4, 1.7768E-07
DataValue, 2.45, 1.7752E-07
DataValue, 2.5, 1.8036E-07
DataValue, 2.5500000000000003, 1.8218E-07
DataValue, 2.6, 1.8411999999999998E-07
DataValue, 2.65, 1.8558E-07
DataValue, 2.7, 1.8728E-07
DataValue, 2.75, 1.8954E-07
DataValue, 2.8000000000000003, 1.9252E-07
DataValue, 2.85, 1.94E-07
DataValue, 2.9, 1.9464E-07
DataValue, 2.95, 1.966E-07
DataValue, 3, 1.9632E-07
DataValue, 3.0500000000000003, 1.9904E-07
DataValue, 3.1, 2.0031999999999998E-07
DataValue, 3.15, 2.0208E-07
DataValue, 3.2, 2.0386E-07
DataValue, 3.25, 2.0516E-07
DataValue, 3.3000000000000003, 2.0728E-07
DataValue, 3.35, 2.0878E-07
DataValue, 3.4, 2.0974E-07
DataValue, 3.45, 2.107E-07
DataValue, 3.5, 2.125E-07
DataValue, 3.5500000000000003, 2.1394E-07
DataValue, 3.6, 2.16E-07
DataValue, 3.65, 2.137E-07
DataValue, 3.7, 2.1581999999999998E-07
DataValue, 3.75, 2.173E-07
DataValue, 3.8000000000000003, 2.187E-07
DataValue, 3.85, 2.2022E-07
DataValue, 3.9, 2.211E-07
DataValue, 3.95, 2.2186E-07
DataValue, 4, 2.2302E-07
DataValue, 4.05, 2.2398E-07
DataValue, 4.1, 2.2624E-07
DataValue, 4.15, 2.2606E-07
DataValue, 4.2, 2.2806E-07
DataValue, 4.25, 2.2882E-07
DataValue, 4.3, 2.2934E-07
DataValue, 4.3500000000000005, 2.303E-07
DataValue, 4.4, 2.3213999999999999E-07
DataValue, 4.45, 2.3173999999999998E-07
DataValue, 4.5, 2.342E-07
DataValue, 4.55, 2.347E-07
DataValue, 4.6000000000000005, 2.364E-07
DataValue, 4.65, 2.3646E-07
DataValue, 4.7, 2.378E-07
DataValue, 4.75, 2.3842E-07
DataValue, 4.8, 2.4026E-07
DataValue, 4.8500000000000005, 2.4143999999999997E-07
DataValue, 4.9, 2.4324E-07
DataValue, 4.95, 2.4444E-07
DataValue, 5, 2.4423999999999997E-07
DataValue, 5, 2.4386E-07
DataValue, 4.95, 2.4494E-07
DataValue, 4.9, 2.4311999999999997E-07
DataValue, 4.8500000000000005, 2.417E-07
DataValue, 4.8, 2.4E-07
DataValue, 4.75, 2.403E-07
DataValue, 4.7, 2.3868E-07
DataValue, 4.65, 2.3822E-07
DataValue, 4.6000000000000005, 2.3834E-07
DataValue, 4.55, 2.3726E-07
DataValue, 4.5, 2.3612E-07
DataValue, 4.45, 2.3507999999999999E-07
DataValue, 4.4, 2.3462E-07
DataValue, 4.3500000000000005, 2.3372E-07
DataValue, 4.3, 2.3304E-07
DataValue, 4.25, 2.3108E-07
DataValue, 4.2, 2.3028E-07
DataValue, 4.15, 2.3008E-07
DataValue, 4.1, 2.2884E-07
DataValue, 4.05, 2.2704E-07
DataValue, 4, 2.2585999999999999E-07
DataValue, 3.95, 2.2486E-07
DataValue, 3.9, 2.24E-07
DataValue, 3.85, 2.2164E-07
DataValue, 3.8000000000000003, 2.2024E-07
DataValue, 3.75, 2.2012E-07
DataValue, 3.7, 2.1728E-07
DataValue, 3.65, 2.18E-07
DataValue, 3.6, 2.1691999999999999E-07
DataValue, 3.5500000000000003, 2.1452E-07
DataValue, 3.5, 2.1368E-07
DataValue, 3.45, 2.1254E-07
DataValue, 3.4, 2.1144E-07
DataValue, 3.35, 2.0916E-07
DataValue, 3.3000000000000003, 2.0813999999999998E-07
DataValue, 3.25, 2.068E-07
DataValue, 3.2, 2.0561999999999998E-07
DataValue, 3.15, 2.0382E-07
DataValue, 3.1, 2.0234E-07
DataValue, 3.0500000000000003, 1.9996E-07
DataValue, 3, 1.9816E-07
DataValue, 2.95, 1.9667999999999999E-07
DataValue, 2.9, 1.9485999999999999E-07
DataValue, 2.85, 1.9212E-07
DataValue, 2.8000000000000003, 1.917E-07
DataValue, 2.75, 1.896E-07
DataValue, 2.7, 1.8776E-07
DataValue, 2.65, 1.864E-07
DataValue, 2.6, 1.8327999999999998E-07
DataValue, 2.5500000000000003, 1.8124E-07
DataValue, 2.5, 1.8018E-07
DataValue, 2.45, 1.7766E-07
DataValue, 2.4, 1.753E-07
DataValue, 2.35, 1.7332E-07
DataValue, 2.3000000000000003, 1.7146E-07
DataValue, 2.25, 1.6896E-07
DataValue, 2.2, 1.6738E-07
DataValue, 2.15, 1.6496E-07
DataValue, 2.1, 1.6318E-07
DataValue, 2.05, 1.6062E-07
DataValue, 2, 1.5742E-07
DataValue, 1.95, 1.5602E-07
DataValue, 1.9000000000000001, 1.5392E-07
DataValue, 1.85, 1.5269999999999998E-07
DataValue, 1.8, 1.4994E-07
DataValue, 1.75, 1.4868E-07
DataValue, 1.7, 1.4604E-07
DataValue, 1.6500000000000001, 1.4288E-07
DataValue, 1.6, 1.4066E-07
DataValue, 1.55, 1.3772E-07
DataValue, 1.5, 1.3584E-07
DataValue, 1.45, 1.322E-07
DataValue, 1.4000000000000001, 1.3026E-07
DataValue, 1.35, 1.2818E-07
DataValue, 1.3, 1.2448E-07
DataValue, 1.25, 1.2144E-07
DataValue, 1.2, 1.1864E-07
DataValue, 1.1500000000000001, 1.1634E-07
DataValue, 1.1, 1.1392E-07
DataValue, 1.05, 1.0982E-07
DataValue, 1, 1.0778E-07
DataValue, 0.95000000000000007, 1.0562E-07
DataValue, 0.9, 1.0308E-07
DataValue, 0.85, 9.996E-08
DataValue, 0.8, 9.74124E-08
DataValue, 0.75, 9.389099999999999E-08
DataValue, 0.70000000000000007, 9.02068E-08
DataValue, 0.65, 8.7595E-08
DataValue, 0.6, 8.288939999999999E-08
DataValue, 0.55, 7.99152E-08
DataValue, 0.5, 7.6847999999999988E-08
DataValue, 0.45, 7.4103999999999986E-08
DataValue, 0.4, 6.9470599999999992E-08
DataValue, 0.35000000000000003, 6.6038599999999992E-08
DataValue, 0.3, 6.2375799999999991E-08
DataValue, 0.25, 5.9702999999999989E-08
DataValue, 0.2, 5.4660599999999994E-08
DataValue, 0.15, 5.14612E-08
DataValue, 0.1, 4.9490199999999993E-08
DataValue, 0.05, 4.70508E-08
DataValue, 0, 4.54058E-08
DataValue, -0.05, 4.1876E-08
DataValue, -0.1, 3.9873599999999995E-08
DataValue, -0.15, 3.64812E-08
DataValue, -0.2, 3.5800599999999996E-08
DataValue, -0.25, 3.4676399999999994E-08
DataValue, -0.3, 3.1466E-08
DataValue, -0.35000000000000003, 3.0113399999999995E-08
DataValue, -0.4, 2.8021799999999997E-08
DataValue, -0.45, 2.5882399999999998E-08
DataValue, -0.5, 2.3787399999999998E-08
DataValue, -0.55, 2.1818599999999997E-08
DataValue, -0.6, 2.02694E-08
DataValue, -0.65, 1.9094999999999997E-08
DataValue, -0.70000000000000007, 1.7975199999999998E-08
DataValue, -0.75, 1.68412E-08
DataValue, -0.8, 1.5814599999999998E-08
DataValue, -0.85, 1.4550999999999999E-08
DataValue, -0.9, 1.3679399999999998E-08
DataValue, -0.95000000000000007, 1.2607399999999999E-08
DataValue, -1, 1.16428E-08
DataValue, -1.05, 1.09084E-08
DataValue, -1.1, 1.01336E-08
DataValue, -1.1500000000000001, 8.8943E-09
DataValue, -1.2, 8.3135E-09
DataValue, -1.25, 7.5614E-09
DataValue, -1.3, 6.8061E-09
DataValue, -1.35, 6.2499E-09
DataValue, -1.4000000000000001, 5.8887E-09
DataValue, -1.45, 5.6776E-09
DataValue, -1.5, 5.2379E-09
DataValue, -1.55, 4.7145E-09
DataValue, -1.6, 4.2708E-09
DataValue, -1.6500000000000001, 4.0426E-09
DataValue, -1.7, 3.6057E-09
DataValue, -1.75, 3.398E-09
DataValue, -1.8, 3.0455E-09
DataValue, -1.85, 2.7468E-09
DataValue, -1.9000000000000001, 2.4943E-09
DataValue, -1.95, 2.3313E-09
DataValue, -2, 1.9792E-09
DataValue, -2.05, 1.8761E-09
DataValue, -2.1, 1.696E-09
DataValue, -2.15, 1.4725E-09
DataValue, -2.2, 1.4724E-09
DataValue, -2.25, 1.3167E-09
DataValue, -2.3000000000000003, 1.2066E-09
DataValue, -2.35, 1.1198E-09
DataValue, -2.4, 1.0001E-09
DataValue, -2.45, 9.706E-10
DataValue, -2.5, 8.806E-10
DataValue, -2.5500000000000003, 6.5998E-10
DataValue, -2.6, 7.4715E-10
DataValue, -2.65, 6.6700000000000007E-10
DataValue, -2.7, 6.3271000000000008E-10
DataValue, -2.75, 6.0366000000000006E-10
DataValue, -2.8000000000000003, 5.8176000000000007E-10
DataValue, -2.85, 5.5724E-10
DataValue, -2.9, 5.6066E-10
DataValue, -2.95, 5.2466E-10
DataValue, -3, 4.7050000000000008E-10
DataValue, -3.0500000000000003, 5.1344E-10
DataValue, -3.1, 4.1871000000000005E-10
DataValue, -3.15, 4.4831000000000003E-10
DataValue, -3.2, 4.2743000000000004E-10
DataValue, -3.25, 4.0362000000000005E-10
DataValue, -3.3000000000000003, 4.1443000000000004E-10
DataValue, -3.35, 3.9395E-10
DataValue, -3.4, 3.7317E-10
DataValue, -3.45, 3.7592000000000003E-10
DataValue, -3.5, 3.6940000000000004E-10
DataValue, -3.5500000000000003, 2.9303E-10
DataValue, -3.6, 3.4515000000000004E-10
DataValue, -3.65, 2.9669000000000004E-10
DataValue, -3.7, 3.1181000000000003E-10
DataValue, -3.75, 3.3111E-10
DataValue, -3.8000000000000003, 3.1913E-10
DataValue, -3.85, 3.1363000000000003E-10
DataValue, -3.9, 3.1639000000000003E-10
DataValue, -3.95, 2.9198E-10
DataValue, -4, 2.8809000000000004E-10
DataValue, -4.05, 2.9780000000000005E-10
DataValue, -4.1, 2.3045000000000002E-10
DataValue, -4.15, 2.8876000000000005E-10
DataValue, -4.2, 2.4424000000000003E-10
DataValue, -4.25, 2.6163E-10
DataValue, -4.3, 2.8202E-10
DataValue, -4.3500000000000005, 2.7149E-10
DataValue, -4.4, 2.5168E-10
DataValue, -4.45, 2.7504E-10
DataValue, -4.5, 2.6505000000000003E-10
DataValue, -4.55, 2.1812000000000002E-10
