
SetupTitle, Transfer(1)
PrimitiveTest, I/V Sweep
TestParameter, Context.MainFrame, B1500A
TestParameter, Channel.UnitType, SMU, SMU
TestParameter, Channel.Unit, SMU1:HR, SMU2:HR
TestParameter, Channel.IName, Igs, Ids
TestParameter, Channel.VName, Vgs, Vds
TestParameter, Channel.Mode, V, V
TestParameter, Channel.Func, VAR1, VAR2
TestParameter, Channel.Index, 
TestParameter, Channel.Time, 
TestParameter, Measurement.Port.Unit, SMU1:HR, SMU2:HR
TestParameter, Measurement.Port.SeriesResistor, NONE, NONE
TestParameter, Measurement.Port.Filter, ON, ON
TestParameter, Measurement.Port.OutputVoltageComparison, 0, 0
TestParameter, Measurement.Primary.Locus, Double
TestParameter, Measurement.Primary.Scale, LINEAR
TestParameter, Measurement.Primary.Start, -5
TestParameter, Measurement.Primary.Stop, 5
TestParameter, Measurement.Primary.Step, 0.05
TestParameter, Measurement.Primary.Compliance, 0.05
TestParameter, Measurement.Primary.PowerCompliance, 0
TestParameter, Measurement.Aborting.Condition, STOP AT ANY ABNORMAL
TestParameter, Measurement.PostOutput.Value, START
TestParameter, Measurement.PostOutput.Retention, OFF
TestParameter, Measurement.Secondary.Start, 0.01
TestParameter, Measurement.Secondary.Count, 2
TestParameter, Measurement.Secondary.Step, 0.02
TestParameter, Measurement.Secondary.Compliance, 0.05
TestParameter, Measurement.Secondary.PowerCompliance, 0
TestParameter, Measurement.Bias.Source, -5, 0.01
TestParameter, Measurement.Bias.Compliance, 0.05, 0.05
TestParameter, Measurement.Monitor.Unit, SMU2:HR, SMU1:HR
TestParameter, Measurement.Monitor.Adc, HR ADC, HR ADC
TestParameter, Measurement.Monitor.Measurement, Compliance Side, Compliance Side
TestParameter, Measurement.Monitor.RangingMode, LIMITED, LIMITED
TestParameter, Measurement.Monitor.RangeBoundary, 100pA, 1nA
TestParameter, Measurement.Monitor.RangeRating, BY FULL RANGE, BY FULL RANGE
TestParameter, Measurement.Monitor.RangeRatingCoeff, 50, 50
TestParameter, Measurement.Timing.Hold, 0
TestParameter, Measurement.Timing.Delay, 0
TestParameter, Measurement.Adc.HighSpeed.Mode, AUTO
TestParameter, Measurement.Adc.HighSpeed.Coeff, 1
TestParameter, Measurement.Adc.HighResolution.AutoZero, OFF
TestParameter, Measurement.Adc.HighResolution.Mode, AUTO
TestParameter, Measurement.Adc.HighResolution.Coeff, 6
TestParameter, Measurement.WaitTime.Source.Coeff, 1
TestParameter, Measurement.WaitTime.Source.Offset, 0
TestParameter, Measurement.WaitTime.Monitor.Coeff, 1
TestParameter, Measurement.WaitTime.Monitor.Offset, 0
TestParameter, Output.Graph.Enabled, true
TestParameter, Output.Graph.AutoScaling, false
TestParameter, Output.Graph.XAxis.Data, Vgs
TestParameter, Output.Graph.XAxis.Scale, Linear
TestParameter, Output.Graph.XAxis.Left, -10
TestParameter, Output.Graph.XAxis.Right, 10
TestParameter, Output.Graph.XAxis.RunTimeAutoScale, true
TestParameter, Output.Graph.YAxis.Data, Ids
TestParameter, Output.Graph.YAxis.Scale, Linear
TestParameter, Output.Graph.YAxis.Bottom, -0.001
TestParameter, Output.Graph.YAxis.Top, 0.001
TestParameter, Output.Graph.YAxis.Group, 
TestParameter, Output.Graph.YAxis.RunTimeAutoScale, true
TestParameter, AutoAnalysis.Interpolation, false
TestParameter, AutoAnalysis.Line1.Enabled, false
TestParameter, AutoAnalysis.Line1.Type, 1
TestParameter, AutoAnalysis.Line1.Fix, True
TestParameter, AutoAnalysis.Line1.YAxis, 0
TestParameter, AutoAnalysis.Line1.Point1.Type, 0
TestParameter, AutoAnalysis.Line1.Point1.XY.X, 
TestParameter, AutoAnalysis.Line1.Point1.XY.Y, 
TestParameter, AutoAnalysis.Line1.Point1.Data.Var, 
TestParameter, AutoAnalysis.Line1.Point1.Data.Condition, 
TestParameter, AutoAnalysis.Line1.Point1.Data.Start, false
TestParameter, AutoAnalysis.Line1.Point1.Data.StartVar, 
TestParameter, AutoAnalysis.Line1.Point1.Data.StartCondition, 
TestParameter, AutoAnalysis.Line1.Point2.Type, 0
TestParameter, AutoAnalysis.Line1.Point2.XY.X, 
TestParameter, AutoAnalysis.Line1.Point2.XY.Y, 
TestParameter, AutoAnalysis.Line1.Point2.Data.Var, 
TestParameter, AutoAnalysis.Line1.Point2.Data.Condition, 
TestParameter, AutoAnalysis.Line1.Point2.Data.Start, false
TestParameter, AutoAnalysis.Line1.Point2.Data.StartVar, 
TestParameter, AutoAnalysis.Line1.Point2.Data.StartCondition, 
TestParameter, AutoAnalysis.Line1.GradientExpr, 0
TestParameter, AutoAnalysis.Line2.Enabled, false
TestParameter, AutoAnalysis.Line2.Type, 1
TestParameter, AutoAnalysis.Line2.Fix, True
TestParameter, AutoAnalysis.Line2.YAxis, 0
TestParameter, AutoAnalysis.Line2.Point1.Type, 0
TestParameter, AutoAnalysis.Line2.Point1.XY.X, 
TestParameter, AutoAnalysis.Line2.Point1.XY.Y, 
TestParameter, AutoAnalysis.Line2.Point1.Data.Var, 
TestParameter, AutoAnalysis.Line2.Point1.Data.Condition, 
TestParameter, AutoAnalysis.Line2.Point1.Data.Start, false
TestParameter, AutoAnalysis.Line2.Point1.Data.StartVar, 
TestParameter, AutoAnalysis.Line2.Point1.Data.StartCondition, 
TestParameter, AutoAnalysis.Line2.Point2.Type, 0
TestParameter, AutoAnalysis.Line2.Point2.XY.X, 
TestParameter, AutoAnalysis.Line2.Point2.XY.Y, 
TestParameter, AutoAnalysis.Line2.Point2.Data.Var, 
TestParameter, AutoAnalysis.Line2.Point2.Data.Condition, 
TestParameter, AutoAnalysis.Line2.Point2.Data.Start, false
TestParameter, AutoAnalysis.Line2.Point2.Data.StartVar, 
TestParameter, AutoAnalysis.Line2.Point2.Data.StartCondition, 
TestParameter, AutoAnalysis.Line2.GradientExpr, 0
TestParameter, AutoAnalysis.Marker.Enabled, false
TestParameter, AutoAnalysis.Marker.Data.Var, 
TestParameter, AutoAnalysis.Marker.Data.Condition, 
TestParameter, AutoAnalysis.Marker.Data.Start, false
TestParameter, AutoAnalysis.Marker.Data.StartVar, 
TestParameter, AutoAnalysis.Marker.Data.StartCondition, 
MetaData, TestRecord.EntryPoint, true
MetaData, TestRecord.RecordTime, 07/21/2020 19:36:09
MetaData, TestRecord.TestTarget, 0413d56
MetaData, TestRecord.IterationIndex, 40
MetaData, TestRecord.Preservation, true
MetaData, TestRecord.Flag, 
MetaData, TestRecord.Remarks, 
MetaData, TestRecord.LinkKey, 5033f60e-d8a1-49ec-905b-88d79b31dd2a
Dimension1, 402, 402
Dimension2, 2, 2
DataName, Vgs, Ids
DataValue, -5, 1.4148E-10
DataValue, -4.95, 1.3858E-10
DataValue, -4.9, 1.1533E-10
DataValue, -4.8500000000000005, 1.2904E-10
DataValue, -4.8, 1.1584000000000001E-10
DataValue, -4.75, 1.1229000000000001E-10
DataValue, -4.7, 1.2037000000000002E-10
DataValue, -4.65, 1.1068000000000001E-10
DataValue, -4.6000000000000005, 1.1657000000000002E-10
DataValue, -4.55, 1.1080000000000001E-10
DataValue, -4.5, 1.3605E-10
DataValue, -4.45, 1.1173000000000001E-10
DataValue, -4.4, 1.4427E-10
DataValue, -4.3500000000000005, 1.2862000000000002E-10
DataValue, -4.3, 1.4938E-10
DataValue, -4.25, 1.4543E-10
DataValue, -4.2, 1.5434E-10
DataValue, -4.15, 1.4390000000000002E-10
DataValue, -4.1, 1.7697E-10
DataValue, -4.05, 1.5489000000000002E-10
DataValue, -4, 2.0487E-10
DataValue, -3.95, 1.835E-10
DataValue, -3.9, 1.8900000000000002E-10
DataValue, -3.85, 1.9599E-10
DataValue, -3.8000000000000003, 1.823E-10
DataValue, -3.75, 2.4331E-10
DataValue, -3.7, 2.6886000000000004E-10
DataValue, -3.65, 3.0948E-10
DataValue, -3.6, 3.7095000000000005E-10
DataValue, -3.5500000000000003, 3.7592000000000003E-10
DataValue, -3.5, 3.9496000000000005E-10
DataValue, -3.45, 4.3015E-10
DataValue, -3.4, 4.9535000000000005E-10
DataValue, -3.35, 5.3834E-10
DataValue, -3.3000000000000003, 5.8307E-10
DataValue, -3.25, 6.4425E-10
DataValue, -3.2, 6.7795E-10
DataValue, -3.15, 7.0187000000000008E-10
DataValue, -3.1, 8.6858000000000012E-10
DataValue, -3.0500000000000003, 9.9136E-10
DataValue, -3, 1.0968E-09
DataValue, -2.95, 1.1712E-09
DataValue, -2.9, 1.3602E-09
DataValue, -2.85, 1.3749E-09
DataValue, -2.8000000000000003, 1.5719E-09
DataValue, -2.75, 1.8944E-09
DataValue, -2.7, 1.9131E-09
DataValue, -2.65, 2.1106E-09
DataValue, -2.6, 2.139E-09
DataValue, -2.5500000000000003, 2.5963E-09
DataValue, -2.5, 2.992E-09
DataValue, -2.45, 3.4137E-09
DataValue, -2.4, 3.7751E-09
DataValue, -2.35, 4.1282E-09
DataValue, -2.3000000000000003, 4.1675E-09
DataValue, -2.25, 4.6878E-09
DataValue, -2.2, 5.1521E-09
DataValue, -2.15, 5.7697E-09
DataValue, -2.1, 6.4469E-09
DataValue, -2.05, 6.7383E-09
DataValue, -2, 7.1734E-09
DataValue, -1.95, 7.7387E-09
DataValue, -1.9000000000000001, 8.8004E-09
DataValue, -1.85, 9.2429E-09
DataValue, -1.8, 1.03251E-08
DataValue, -1.75, 1.11158E-08
DataValue, -1.7, 1.2523999999999999E-08
DataValue, -1.6500000000000001, 1.3126E-08
DataValue, -1.6, 1.4471199999999999E-08
DataValue, -1.55, 1.5566599999999998E-08
DataValue, -1.5, 1.6707E-08
DataValue, -1.45, 1.8284199999999998E-08
DataValue, -1.4000000000000001, 1.9609999999999998E-08
DataValue, -1.35, 2.1449999999999997E-08
DataValue, -1.3, 2.2233599999999997E-08
DataValue, -1.25, 2.3547399999999997E-08
DataValue, -1.2, 2.6182999999999997E-08
DataValue, -1.1500000000000001, 2.8565399999999997E-08
DataValue, -1.1, 2.9335599999999997E-08
DataValue, -1.05, 3.14458E-08
DataValue, -1, 3.3234199999999996E-08
DataValue, -0.95000000000000007, 3.5268599999999995E-08
DataValue, -0.9, 3.69886E-08
DataValue, -0.85, 3.89624E-08
DataValue, -0.8, 4.11602E-08
DataValue, -0.75, 4.59298E-08
DataValue, -0.70000000000000007, 4.7483599999999995E-08
DataValue, -0.65, 4.9995199999999996E-08
DataValue, -0.6, 5.2527399999999993E-08
DataValue, -0.55, 5.5030799999999994E-08
DataValue, -0.5, 5.7708799999999993E-08
DataValue, -0.45, 6.0694E-08
DataValue, -0.4, 6.42858E-08
DataValue, -0.35000000000000003, 6.64996E-08
DataValue, -0.3, 6.9607E-08
DataValue, -0.25, 7.227719999999999E-08
DataValue, -0.2, 7.5525E-08
DataValue, -0.15, 7.8981799999999988E-08
DataValue, -0.1, 8.03098E-08
DataValue, -0.05, 8.204179999999999E-08
DataValue, 0, 8.34752E-08
DataValue, 0.05, 8.58922E-08
DataValue, 0.1, 8.8587799999999988E-08
DataValue, 0.15, 9.1505399999999993E-08
DataValue, 0.2, 9.37276E-08
DataValue, 0.25, 9.6795799999999991E-08
DataValue, 0.3, 1.00139E-07
DataValue, 0.35000000000000003, 1.0224919999999999E-07
DataValue, 0.4, 1.0391159999999999E-07
DataValue, 0.45, 1.071956E-07
DataValue, 0.5, 1.0973059999999998E-07
DataValue, 0.55, 1.1204899999999999E-07
DataValue, 0.6, 1.1412679999999999E-07
DataValue, 0.65, 1.178E-07
DataValue, 0.70000000000000007, 1.2028E-07
DataValue, 0.75, 1.228E-07
DataValue, 0.8, 1.2478E-07
DataValue, 0.85, 1.2624E-07
DataValue, 0.9, 1.2848E-07
DataValue, 0.95000000000000007, 1.3048E-07
DataValue, 1, 1.3296E-07
DataValue, 1.05, 1.3554E-07
DataValue, 1.1, 1.3744E-07
DataValue, 1.1500000000000001, 1.4042E-07
DataValue, 1.2, 1.4106E-07
DataValue, 1.25, 1.4388E-07
DataValue, 1.3, 1.4718E-07
DataValue, 1.35, 1.4902E-07
DataValue, 1.4000000000000001, 1.4916E-07
DataValue, 1.45, 1.5196E-07
DataValue, 1.5, 1.537E-07
DataValue, 1.55, 1.5508E-07
DataValue, 1.6, 1.5612E-07
DataValue, 1.6500000000000001, 1.5844E-07
DataValue, 1.7, 1.6104E-07
DataValue, 1.75, 1.6354E-07
DataValue, 1.8, 1.6497999999999999E-07
DataValue, 1.85, 1.6754E-07
DataValue, 1.9000000000000001, 1.6777999999999998E-07
DataValue, 1.95, 1.6994E-07
DataValue, 2, 1.7232E-07
DataValue, 2.05, 1.74E-07
DataValue, 2.1, 1.7632E-07
DataValue, 2.15, 1.7736E-07
DataValue, 2.2, 1.7888E-07
DataValue, 2.25, 1.8106E-07
DataValue, 2.3000000000000003, 1.8214E-07
DataValue, 2.35, 1.8444E-07
DataValue, 2.4, 1.863E-07
DataValue, 2.45, 1.8842E-07
DataValue, 2.5, 1.9034E-07
DataValue, 2.5500000000000003, 1.9128E-07
DataValue, 2.6, 1.9296E-07
DataValue, 2.65, 1.9504E-07
DataValue, 2.7, 1.9596E-07
DataValue, 2.75, 1.9902E-07
DataValue, 2.8000000000000003, 2.0092E-07
DataValue, 2.85, 2.0194E-07
DataValue, 2.9, 2.0304E-07
DataValue, 2.95, 2.0468E-07
DataValue, 3, 2.0592E-07
DataValue, 3.0500000000000003, 2.0714E-07
DataValue, 3.1, 2.0864E-07
DataValue, 3.15, 2.1094E-07
DataValue, 3.2, 2.1238E-07
DataValue, 3.25, 2.1196E-07
DataValue, 3.3000000000000003, 2.149E-07
DataValue, 3.35, 2.162E-07
DataValue, 3.4, 2.175E-07
DataValue, 3.45, 2.1878E-07
DataValue, 3.5, 2.2088E-07
DataValue, 3.5500000000000003, 2.2134E-07
DataValue, 3.6, 2.2292E-07
DataValue, 3.65, 2.237E-07
DataValue, 3.7, 2.2624E-07
DataValue, 3.75, 2.2616E-07
DataValue, 3.8000000000000003, 2.2624E-07
DataValue, 3.85, 2.2848E-07
DataValue, 3.9, 2.2856E-07
DataValue, 3.95, 2.3066E-07
DataValue, 4, 2.3226E-07
DataValue, 4.05, 2.3342E-07
DataValue, 4.1, 2.3442E-07
DataValue, 4.15, 2.3534E-07
DataValue, 4.2, 2.3476E-07
DataValue, 4.25, 2.3549999999999999E-07
DataValue, 4.3, 2.3698E-07
DataValue, 4.3500000000000005, 2.3836E-07
DataValue, 4.4, 2.4059999999999997E-07
DataValue, 4.45, 2.4182E-07
DataValue, 4.5, 2.4152E-07
DataValue, 4.55, 2.4402E-07
DataValue, 4.6000000000000005, 2.4446E-07
DataValue, 4.65, 2.4437999999999997E-07
DataValue, 4.7, 2.4632E-07
DataValue, 4.75, 2.4874E-07
DataValue, 4.8, 2.489E-07
DataValue, 4.8500000000000005, 2.4888E-07
DataValue, 4.9, 2.5016E-07
DataValue, 4.95, 2.5146E-07
DataValue, 5, 2.5116E-07
DataValue, 5, 2.5091999999999997E-07
DataValue, 4.95, 2.4866E-07
DataValue, 4.9, 2.5035999999999997E-07
DataValue, 4.8500000000000005, 2.4898E-07
DataValue, 4.8, 2.4778E-07
DataValue, 4.75, 2.4738E-07
DataValue, 4.7, 2.4692E-07
DataValue, 4.65, 2.4568E-07
DataValue, 4.6000000000000005, 2.4464E-07
DataValue, 4.55, 2.4314E-07
DataValue, 4.5, 2.4276E-07
DataValue, 4.45, 2.4092E-07
DataValue, 4.4, 2.3938E-07
DataValue, 4.3500000000000005, 2.3886E-07
DataValue, 4.3, 2.379E-07
DataValue, 4.25, 2.3694E-07
DataValue, 4.2, 2.3731999999999998E-07
DataValue, 4.15, 2.3684E-07
DataValue, 4.1, 2.3542E-07
DataValue, 4.05, 2.3528E-07
DataValue, 4, 2.3364E-07
DataValue, 3.95, 2.3224E-07
DataValue, 3.9, 2.3033999999999998E-07
DataValue, 3.85, 2.2798E-07
DataValue, 3.8000000000000003, 2.2724E-07
DataValue, 3.75, 2.2848E-07
DataValue, 3.7, 2.263E-07
DataValue, 3.65, 2.2492E-07
DataValue, 3.6, 2.2382E-07
DataValue, 3.5500000000000003, 2.227E-07
DataValue, 3.5, 2.2124E-07
DataValue, 3.45, 2.2058E-07
DataValue, 3.4, 2.1858E-07
DataValue, 3.35, 2.1714E-07
DataValue, 3.3000000000000003, 2.1635999999999999E-07
DataValue, 3.25, 2.1478E-07
DataValue, 3.2, 2.1364E-07
DataValue, 3.15, 2.125E-07
DataValue, 3.1, 2.1098E-07
DataValue, 3.0500000000000003, 2.0984E-07
DataValue, 3, 2.0841999999999998E-07
DataValue, 2.95, 2.0708E-07
DataValue, 2.9, 2.05E-07
DataValue, 2.85, 2.0386E-07
DataValue, 2.8000000000000003, 2.037E-07
DataValue, 2.75, 2.0228E-07
DataValue, 2.7, 2.0085999999999999E-07
DataValue, 2.65, 1.9936E-07
DataValue, 2.6, 1.9734E-07
DataValue, 2.5500000000000003, 1.9558E-07
DataValue, 2.5, 1.9436E-07
DataValue, 2.45, 1.921E-07
DataValue, 2.4, 1.8944E-07
DataValue, 2.35, 1.882E-07
DataValue, 2.3000000000000003, 1.8554E-07
DataValue, 2.25, 1.8502E-07
DataValue, 2.2, 1.8294E-07
DataValue, 2.15, 1.806E-07
DataValue, 2.1, 1.7804E-07
DataValue, 2.05, 1.759E-07
DataValue, 2, 1.7552E-07
DataValue, 1.95, 1.7302E-07
DataValue, 1.9000000000000001, 1.6998E-07
DataValue, 1.85, 1.685E-07
DataValue, 1.8, 1.6567999999999999E-07
DataValue, 1.75, 1.6286E-07
DataValue, 1.7, 1.6152E-07
DataValue, 1.6500000000000001, 1.6032E-07
DataValue, 1.6, 1.5692E-07
DataValue, 1.55, 1.551E-07
DataValue, 1.5, 1.5258E-07
DataValue, 1.45, 1.5104E-07
DataValue, 1.4000000000000001, 1.4746E-07
DataValue, 1.35, 1.4508E-07
DataValue, 1.3, 1.4326E-07
DataValue, 1.25, 1.4039999999999999E-07
DataValue, 1.2, 1.3898E-07
DataValue, 1.1500000000000001, 1.3666E-07
DataValue, 1.1, 1.3348E-07
DataValue, 1.05, 1.3106E-07
DataValue, 1, 1.2853999999999999E-07
DataValue, 0.95000000000000007, 1.2666E-07
DataValue, 0.9, 1.2276E-07
DataValue, 0.85, 1.1996E-07
DataValue, 0.8, 1.1638E-07
DataValue, 0.75, 1.145E-07
DataValue, 0.70000000000000007, 1.1204E-07
DataValue, 0.65, 1.0872E-07
DataValue, 0.6, 1.0606E-07
DataValue, 0.55, 1.0236E-07
DataValue, 0.5, 9.9545E-08
DataValue, 0.45, 9.7701E-08
DataValue, 0.4, 9.4782199999999992E-08
DataValue, 0.35000000000000003, 9.2616999999999988E-08
DataValue, 0.3, 8.90486E-08
DataValue, 0.25, 8.55424E-08
DataValue, 0.2, 8.3705399999999989E-08
DataValue, 0.15, 7.9322599999999993E-08
DataValue, 0.1, 7.5056399999999989E-08
DataValue, 0.05, 7.25874E-08
DataValue, 0, 6.8789199999999992E-08
DataValue, -0.05, 6.5708599999999988E-08
DataValue, -0.1, 6.24462E-08
DataValue, -0.15, 5.9200599999999993E-08
DataValue, -0.2, 5.5841399999999992E-08
DataValue, -0.25, 5.3464599999999994E-08
DataValue, -0.3, 5.0054799999999996E-08
DataValue, -0.35000000000000003, 4.7148399999999995E-08
DataValue, -0.4, 4.3703799999999995E-08
DataValue, -0.45, 4.06684E-08
DataValue, -0.5, 3.8042799999999994E-08
DataValue, -0.55, 3.65862E-08
DataValue, -0.6, 3.3334399999999994E-08
DataValue, -0.65, 3.0965E-08
DataValue, -0.70000000000000007, 2.8886599999999997E-08
DataValue, -0.75, 2.6629999999999998E-08
DataValue, -0.8, 2.4920399999999996E-08
DataValue, -0.85, 2.3752799999999997E-08
DataValue, -0.9, 2.2446599999999997E-08
DataValue, -0.95000000000000007, 2.1000799999999996E-08
DataValue, -1, 1.9952599999999998E-08
DataValue, -1.05, 1.8637799999999997E-08
DataValue, -1.1, 1.7633399999999998E-08
DataValue, -1.1500000000000001, 1.63182E-08
DataValue, -1.2, 1.5192599999999997E-08
DataValue, -1.25, 1.4237799999999999E-08
DataValue, -1.3, 1.32954E-08
DataValue, -1.35, 1.2506799999999998E-08
DataValue, -1.4000000000000001, 1.16908E-08
DataValue, -1.45, 1.08318E-08
DataValue, -1.5, 1.0150799999999999E-08
DataValue, -1.55, 9.0797E-09
DataValue, -1.6, 8.8585E-09
DataValue, -1.6500000000000001, 8.1991E-09
DataValue, -1.7, 7.6372E-09
DataValue, -1.75, 6.9998E-09
DataValue, -1.8, 6.5013E-09
DataValue, -1.85, 5.9165E-09
DataValue, -1.9000000000000001, 5.4167E-09
DataValue, -1.95, 4.863E-09
DataValue, -2, 4.4411E-09
DataValue, -2.05, 3.971E-09
DataValue, -2.1, 3.6739E-09
DataValue, -2.15, 3.3072E-09
DataValue, -2.2, 3.1368E-09
DataValue, -2.25, 2.8819E-09
DataValue, -2.3000000000000003, 2.7306E-09
DataValue, -2.35, 2.7304E-09
DataValue, -2.4, 2.3423E-09
DataValue, -2.45, 2.2099E-09
DataValue, -2.5, 1.9826E-09
DataValue, -2.5500000000000003, 1.7984E-09
DataValue, -2.6, 1.7832E-09
DataValue, -2.65, 1.5403E-09
DataValue, -2.7, 1.4246E-09
DataValue, -2.75, 1.3851E-09
DataValue, -2.8000000000000003, 1.2419E-09
DataValue, -2.85, 1.1816E-09
DataValue, -2.9, 1.0707E-09
DataValue, -2.95, 9.686E-10
DataValue, -3, 9.118E-10
DataValue, -3.0500000000000003, 7.509E-10
DataValue, -3.1, 6.0773E-10
DataValue, -3.15, 6.8816E-10
DataValue, -3.2, 6.1393000000000007E-10
DataValue, -3.25, 6.0768E-10
DataValue, -3.3000000000000003, 5.8771E-10
DataValue, -3.35, 5.1113000000000007E-10
DataValue, -3.4, 5.2246000000000008E-10
DataValue, -3.45, 4.9377E-10
DataValue, -3.5, 4.7449000000000009E-10
DataValue, -3.5500000000000003, 4.4935000000000006E-10
DataValue, -3.6, 4.2478000000000006E-10
DataValue, -3.65, 4.0636000000000003E-10
DataValue, -3.7, 3.9563E-10
DataValue, -3.75, 3.6905000000000003E-10
DataValue, -3.8000000000000003, 3.1075000000000004E-10
DataValue, -3.85, 3.6757E-10
DataValue, -3.9, 3.3127000000000004E-10
DataValue, -3.95, 3.3505000000000005E-10
DataValue, -4, 3.4288E-10
DataValue, -4.05, 3.1644000000000005E-10
DataValue, -4.1, 3.0452E-10
DataValue, -4.15, 3.2302000000000004E-10
DataValue, -4.2, 2.9132000000000003E-10
DataValue, -4.25, 2.9745000000000004E-10
DataValue, -4.3, 3.0923000000000003E-10
DataValue, -4.3500000000000005, 2.1966000000000002E-10
DataValue, -4.4, 2.7996000000000003E-10
DataValue, -4.45, 2.6738E-10
DataValue, -4.5, 2.5393E-10
DataValue, -4.55, 2.7849000000000004E-10
DataValue, -4.6000000000000005, 2.6617E-10
DataValue, -4.65, 2.5178000000000003E-10
DataValue, -4.7, 2.7765E-10
DataValue, -4.75, 2.62E-10
DataValue, -4.8, 2.1712000000000002E-10
