
SetupTitle, Transfer(1)
PrimitiveTest, I/V Sweep
TestParameter, Context.MainFrame, B1500A
TestParameter, Channel.UnitType, SMU, SMU
TestParameter, Channel.Unit, SMU1:HR, SMU2:HR
TestParameter, Channel.IName, Igs, Ids
TestParameter, Channel.VName, Vgs, Vds
TestParameter, Channel.Mode, V, V
TestParameter, Channel.Func, VAR1, VAR2
TestParameter, Channel.Index, 
TestParameter, Channel.Time, 
TestParameter, Measurement.Port.Unit, SMU1:HR, SMU2:HR
TestParameter, Measurement.Port.SeriesResistor, NONE, NONE
TestParameter, Measurement.Port.Filter, ON, ON
TestParameter, Measurement.Port.OutputVoltageComparison, 0, 0
TestParameter, Measurement.Primary.Locus, Double
TestParameter, Measurement.Primary.Scale, LINEAR
TestParameter, Measurement.Primary.Start, -5
TestParameter, Measurement.Primary.Stop, 5
TestParameter, Measurement.Primary.Step, 0.05
TestParameter, Measurement.Primary.Compliance, 0.05
TestParameter, Measurement.Primary.PowerCompliance, 0
TestParameter, Measurement.Aborting.Condition, STOP AT ANY ABNORMAL
TestParameter, Measurement.PostOutput.Value, START
TestParameter, Measurement.PostOutput.Retention, OFF
TestParameter, Measurement.Secondary.Start, 0.01
TestParameter, Measurement.Secondary.Count, 2
TestParameter, Measurement.Secondary.Step, 0.02
TestParameter, Measurement.Secondary.Compliance, 0.05
TestParameter, Measurement.Secondary.PowerCompliance, 0
TestParameter, Measurement.Bias.Source, -5, 0.01
TestParameter, Measurement.Bias.Compliance, 0.05, 0.05
TestParameter, Measurement.Monitor.Unit, SMU2:HR, SMU1:HR
TestParameter, Measurement.Monitor.Adc, HR ADC, HR ADC
TestParameter, Measurement.Monitor.Measurement, Compliance Side, Compliance Side
TestParameter, Measurement.Monitor.RangingMode, LIMITED, LIMITED
TestParameter, Measurement.Monitor.RangeBoundary, 100pA, 1nA
TestParameter, Measurement.Monitor.RangeRating, BY FULL RANGE, BY FULL RANGE
TestParameter, Measurement.Monitor.RangeRatingCoeff, 50, 50
TestParameter, Measurement.Timing.Hold, 0
TestParameter, Measurement.Timing.Delay, 0
TestParameter, Measurement.Adc.HighSpeed.Mode, AUTO
TestParameter, Measurement.Adc.HighSpeed.Coeff, 1
TestParameter, Measurement.Adc.HighResolution.AutoZero, OFF
TestParameter, Measurement.Adc.HighResolution.Mode, AUTO
TestParameter, Measurement.Adc.HighResolution.Coeff, 6
TestParameter, Measurement.WaitTime.Source.Coeff, 1
TestParameter, Measurement.WaitTime.Source.Offset, 0
TestParameter, Measurement.WaitTime.Monitor.Coeff, 1
TestParameter, Measurement.WaitTime.Monitor.Offset, 0
TestParameter, Output.Graph.Enabled, true
TestParameter, Output.Graph.AutoScaling, false
TestParameter, Output.Graph.XAxis.Data, Vgs
TestParameter, Output.Graph.XAxis.Scale, Linear
TestParameter, Output.Graph.XAxis.Left, -10
TestParameter, Output.Graph.XAxis.Right, 10
TestParameter, Output.Graph.XAxis.RunTimeAutoScale, true
TestParameter, Output.Graph.YAxis.Data, Ids
TestParameter, Output.Graph.YAxis.Scale, Linear
TestParameter, Output.Graph.YAxis.Bottom, -0.001
TestParameter, Output.Graph.YAxis.Top, 0.001
TestParameter, Output.Graph.YAxis.Group, 
TestParameter, Output.Graph.YAxis.RunTimeAutoScale, true
TestParameter, AutoAnalysis.Interpolation, false
TestParameter, AutoAnalysis.Line1.Enabled, false
TestParameter, AutoAnalysis.Line1.Type, 1
TestParameter, AutoAnalysis.Line1.Fix, True
TestParameter, AutoAnalysis.Line1.YAxis, 0
TestParameter, AutoAnalysis.Line1.Point1.Type, 0
TestParameter, AutoAnalysis.Line1.Point1.XY.X, 
TestParameter, AutoAnalysis.Line1.Point1.XY.Y, 
TestParameter, AutoAnalysis.Line1.Point1.Data.Var, 
TestParameter, AutoAnalysis.Line1.Point1.Data.Condition, 
TestParameter, AutoAnalysis.Line1.Point1.Data.Start, false
TestParameter, AutoAnalysis.Line1.Point1.Data.StartVar, 
TestParameter, AutoAnalysis.Line1.Point1.Data.StartCondition, 
TestParameter, AutoAnalysis.Line1.Point2.Type, 0
TestParameter, AutoAnalysis.Line1.Point2.XY.X, 
TestParameter, AutoAnalysis.Line1.Point2.XY.Y, 
TestParameter, AutoAnalysis.Line1.Point2.Data.Var, 
TestParameter, AutoAnalysis.Line1.Point2.Data.Condition, 
TestParameter, AutoAnalysis.Line1.Point2.Data.Start, false
TestParameter, AutoAnalysis.Line1.Point2.Data.StartVar, 
TestParameter, AutoAnalysis.Line1.Point2.Data.StartCondition, 
TestParameter, AutoAnalysis.Line1.GradientExpr, 0
TestParameter, AutoAnalysis.Line2.Enabled, false
TestParameter, AutoAnalysis.Line2.Type, 1
TestParameter, AutoAnalysis.Line2.Fix, True
TestParameter, AutoAnalysis.Line2.YAxis, 0
TestParameter, AutoAnalysis.Line2.Point1.Type, 0
TestParameter, AutoAnalysis.Line2.Point1.XY.X, 
TestParameter, AutoAnalysis.Line2.Point1.XY.Y, 
TestParameter, AutoAnalysis.Line2.Point1.Data.Var, 
TestParameter, AutoAnalysis.Line2.Point1.Data.Condition, 
TestParameter, AutoAnalysis.Line2.Point1.Data.Start, false
TestParameter, AutoAnalysis.Line2.Point1.Data.StartVar, 
TestParameter, AutoAnalysis.Line2.Point1.Data.StartCondition, 
TestParameter, AutoAnalysis.Line2.Point2.Type, 0
TestParameter, AutoAnalysis.Line2.Point2.XY.X, 
TestParameter, AutoAnalysis.Line2.Point2.XY.Y, 
TestParameter, AutoAnalysis.Line2.Point2.Data.Var, 
TestParameter, AutoAnalysis.Line2.Point2.Data.Condition, 
TestParameter, AutoAnalysis.Line2.Point2.Data.Start, false
TestParameter, AutoAnalysis.Line2.Point2.Data.StartVar, 
TestParameter, AutoAnalysis.Line2.Point2.Data.StartCondition, 
TestParameter, AutoAnalysis.Line2.GradientExpr, 0
TestParameter, AutoAnalysis.Marker.Enabled, false
TestParameter, AutoAnalysis.Marker.Data.Var, 
TestParameter, AutoAnalysis.Marker.Data.Condition, 
TestParameter, AutoAnalysis.Marker.Data.Start, false
TestParameter, AutoAnalysis.Marker.Data.StartVar, 
TestParameter, AutoAnalysis.Marker.Data.StartCondition, 
MetaData, TestRecord.EntryPoint, true
MetaData, TestRecord.RecordTime, 07/21/2020 19:44:17
MetaData, TestRecord.TestTarget, 0407c56
MetaData, TestRecord.IterationIndex, 48
MetaData, TestRecord.Preservation, true
MetaData, TestRecord.Flag, 
MetaData, TestRecord.Remarks, 
MetaData, TestRecord.LinkKey, cc62bbbf-5627-444a-98dc-c4a285a188d2
Dimension1, 402, 402
Dimension2, 2, 2
DataName, Vgs, Ids
DataValue, -5, 2.8112E-09
DataValue, -4.95, 2.695E-09
DataValue, -4.9, 2.8466E-09
DataValue, -4.8500000000000005, 2.937E-09
DataValue, -4.8, 3.3481E-09
DataValue, -4.75, 3.5773E-09
DataValue, -4.7, 3.9785E-09
DataValue, -4.65, 4.596E-09
DataValue, -4.6000000000000005, 4.4727E-09
DataValue, -4.55, 4.4528E-09
DataValue, -4.5, 5.0271E-09
DataValue, -4.45, 5.658E-09
DataValue, -4.4, 6.5496E-09
DataValue, -4.3500000000000005, 7.2593E-09
DataValue, -4.3, 8.2917E-09
DataValue, -4.25, 8.8598E-09
DataValue, -4.2, 9.6501E-09
DataValue, -4.15, 1.07719E-08
DataValue, -4.1, 1.1861599999999999E-08
DataValue, -4.05, 1.28966E-08
DataValue, -4, 1.3643999999999998E-08
DataValue, -3.95, 1.63964E-08
DataValue, -3.9, 1.76506E-08
DataValue, -3.85, 1.79508E-08
DataValue, -3.8000000000000003, 1.8296199999999998E-08
DataValue, -3.75, 2.0815599999999997E-08
DataValue, -3.7, 2.2349799999999997E-08
DataValue, -3.65, 2.40028E-08
DataValue, -3.6, 2.4915399999999997E-08
DataValue, -3.5500000000000003, 2.5875399999999997E-08
DataValue, -3.5, 2.9382399999999996E-08
DataValue, -3.45, 3.1045799999999995E-08
DataValue, -3.4, 3.24054E-08
DataValue, -3.35, 3.3544E-08
DataValue, -3.3000000000000003, 3.7028799999999996E-08
DataValue, -3.25, 3.7059399999999996E-08
DataValue, -3.2, 3.9599599999999995E-08
DataValue, -3.15, 4.1013199999999996E-08
DataValue, -3.1, 4.3315399999999996E-08
DataValue, -3.0500000000000003, 4.5674599999999995E-08
DataValue, -3, 4.6787599999999993E-08
DataValue, -2.95, 5.0955799999999992E-08
DataValue, -2.9, 5.2500399999999995E-08
DataValue, -2.85, 5.5076399999999991E-08
DataValue, -2.8000000000000003, 5.9533399999999996E-08
DataValue, -2.75, 6.25602E-08
DataValue, -2.7, 6.5623999999999993E-08
DataValue, -2.65, 6.85294E-08
DataValue, -2.6, 7.1384799999999989E-08
DataValue, -2.5500000000000003, 7.4490999999999989E-08
DataValue, -2.5, 8.09422E-08
DataValue, -2.45, 8.3780599999999993E-08
DataValue, -2.4, 9.058799999999999E-08
DataValue, -2.35, 9.45588E-08
DataValue, -2.3000000000000003, 1.0022819999999999E-07
DataValue, -2.25, 1.0733639999999998E-07
DataValue, -2.2, 1.1270759999999998E-07
DataValue, -2.15, 1.1508E-07
DataValue, -2.1, 1.206E-07
DataValue, -2.05, 1.2694E-07
DataValue, -2, 1.302E-07
DataValue, -1.95, 1.3355999999999999E-07
DataValue, -1.9000000000000001, 1.4032E-07
DataValue, -1.85, 1.4494E-07
DataValue, -1.8, 1.5282E-07
DataValue, -1.75, 1.5701999999999999E-07
DataValue, -1.7, 1.6306E-07
DataValue, -1.6500000000000001, 1.686E-07
DataValue, -1.6, 1.7629999999999998E-07
DataValue, -1.55, 1.842E-07
DataValue, -1.5, 1.8832E-07
DataValue, -1.45, 1.9456E-07
DataValue, -1.4000000000000001, 2.0398E-07
DataValue, -1.35, 2.1012E-07
DataValue, -1.3, 2.167E-07
DataValue, -1.25, 2.2356E-07
DataValue, -1.2, 2.3115999999999999E-07
DataValue, -1.1500000000000001, 2.3849999999999997E-07
DataValue, -1.1, 2.4409999999999997E-07
DataValue, -1.05, 2.4858E-07
DataValue, -1, 2.551E-07
DataValue, -0.95000000000000007, 2.6374E-07
DataValue, -0.9, 2.6752E-07
DataValue, -0.85, 2.7646E-07
DataValue, -0.8, 2.834E-07
DataValue, -0.75, 2.8918E-07
DataValue, -0.70000000000000007, 2.9576E-07
DataValue, -0.65, 3.0348E-07
DataValue, -0.6, 3.0894E-07
DataValue, -0.55, 3.1378E-07
DataValue, -0.5, 3.2208E-07
DataValue, -0.45, 3.2743999999999997E-07
DataValue, -0.4, 3.3532E-07
DataValue, -0.35000000000000003, 3.3942E-07
DataValue, -0.3, 3.469E-07
DataValue, -0.25, 3.5294E-07
DataValue, -0.2, 3.568E-07
DataValue, -0.15, 3.6394E-07
DataValue, -0.1, 3.7004E-07
DataValue, -0.05, 3.7496E-07
DataValue, 0, 3.818E-07
DataValue, 0.05, 3.8898E-07
DataValue, 0.1, 3.947E-07
DataValue, 0.15, 4.0012E-07
DataValue, 0.2, 4.0626E-07
DataValue, 0.25, 4.1206E-07
DataValue, 0.3, 4.1752E-07
DataValue, 0.35000000000000003, 4.2522E-07
DataValue, 0.4, 4.2984E-07
DataValue, 0.45, 4.3612E-07
DataValue, 0.5, 4.418E-07
DataValue, 0.55, 4.508E-07
DataValue, 0.6, 4.5798E-07
DataValue, 0.65, 4.6308E-07
DataValue, 0.70000000000000007, 4.6646E-07
DataValue, 0.75, 4.7516E-07
DataValue, 0.8, 4.8056E-07
DataValue, 0.85, 4.8694E-07
DataValue, 0.9, 4.9326E-07
DataValue, 0.95000000000000007, 4.9868E-07
DataValue, 1, 5.0254E-07
DataValue, 1.05, 5.0676E-07
DataValue, 1.1, 5.1338E-07
DataValue, 1.1500000000000001, 5.1975999999999994E-07
DataValue, 1.2, 5.2632E-07
DataValue, 1.25, 5.3112E-07
DataValue, 1.3, 5.3469999999999994E-07
DataValue, 1.35, 5.4008E-07
DataValue, 1.4000000000000001, 5.4556E-07
DataValue, 1.45, 5.509E-07
DataValue, 1.5, 5.564E-07
DataValue, 1.55, 5.5822E-07
DataValue, 1.6, 5.6162E-07
DataValue, 1.6500000000000001, 5.7204E-07
DataValue, 1.7, 5.758E-07
DataValue, 1.75, 5.8234E-07
DataValue, 1.8, 5.8484E-07
DataValue, 1.85, 5.9014E-07
DataValue, 1.9000000000000001, 5.9172E-07
DataValue, 1.95, 5.951E-07
DataValue, 2, 6.0122E-07
DataValue, 2.05, 6.0808E-07
DataValue, 2.1, 6.0942E-07
DataValue, 2.15, 6.1476E-07
DataValue, 2.2, 6.2006E-07
DataValue, 2.25, 6.2128E-07
DataValue, 2.3000000000000003, 6.2583999999999994E-07
DataValue, 2.35, 6.2909999999999994E-07
DataValue, 2.4, 6.3496E-07
DataValue, 2.45, 6.3902E-07
DataValue, 2.5, 6.4126E-07
DataValue, 2.5500000000000003, 6.468E-07
DataValue, 2.6, 6.4973999999999994E-07
DataValue, 2.65, 6.5222E-07
DataValue, 2.7, 6.5851999999999994E-07
DataValue, 2.75, 6.6098E-07
DataValue, 2.8000000000000003, 6.6562E-07
DataValue, 2.85, 6.6922E-07
DataValue, 2.9, 6.7457999999999994E-07
DataValue, 2.95, 6.764E-07
DataValue, 3, 6.7978E-07
DataValue, 3.0500000000000003, 6.8524E-07
DataValue, 3.1, 6.8694E-07
DataValue, 3.15, 6.9152E-07
DataValue, 3.2, 6.9287999999999994E-07
DataValue, 3.25, 6.9434E-07
DataValue, 3.3000000000000003, 6.9894E-07
DataValue, 3.35, 6.9972E-07
DataValue, 3.4, 7.057E-07
DataValue, 3.45, 7.0896E-07
DataValue, 3.5, 7.1341999999999994E-07
DataValue, 3.5500000000000003, 7.161E-07
DataValue, 3.6, 7.167E-07
DataValue, 3.65, 7.2056E-07
DataValue, 3.7, 7.2072E-07
DataValue, 3.75, 7.2296E-07
DataValue, 3.8000000000000003, 7.2704E-07
DataValue, 3.85, 7.2994E-07
DataValue, 3.9, 7.3334E-07
DataValue, 3.95, 7.3754E-07
DataValue, 4, 7.3892E-07
DataValue, 4.05, 7.4214E-07
DataValue, 4.1, 7.4339999999999995E-07
DataValue, 4.15, 7.4454E-07
DataValue, 4.2, 7.4894E-07
DataValue, 4.25, 7.5166E-07
DataValue, 4.3, 7.5388E-07
DataValue, 4.3500000000000005, 7.5571999999999994E-07
DataValue, 4.4, 7.5652E-07
DataValue, 4.45, 7.624E-07
DataValue, 4.5, 7.6411999999999994E-07
DataValue, 4.55, 7.6724E-07
DataValue, 4.6000000000000005, 7.6836E-07
DataValue, 4.65, 7.7188E-07
DataValue, 4.7, 7.734E-07
DataValue, 4.75, 7.741E-07
DataValue, 4.8, 7.7632E-07
DataValue, 4.8500000000000005, 7.8032E-07
DataValue, 4.9, 7.8036E-07
DataValue, 4.95, 7.7968E-07
DataValue, 5, 7.8384E-07
DataValue, 5, 7.8424E-07
DataValue, 4.95, 7.8162E-07
DataValue, 4.9, 7.8048E-07
DataValue, 4.8500000000000005, 7.7678E-07
DataValue, 4.8, 7.7278E-07
DataValue, 4.75, 7.7144E-07
DataValue, 4.7, 7.6714E-07
DataValue, 4.65, 7.6276E-07
DataValue, 4.6000000000000005, 7.6148E-07
DataValue, 4.55, 7.6016E-07
DataValue, 4.5, 7.5528E-07
DataValue, 4.45, 7.5421999999999993E-07
DataValue, 4.4, 7.5112E-07
DataValue, 4.3500000000000005, 7.4734E-07
DataValue, 4.3, 7.4658E-07
DataValue, 4.25, 7.415E-07
DataValue, 4.2, 7.3853999999999994E-07
DataValue, 4.15, 7.3468E-07
DataValue, 4.1, 7.3246E-07
DataValue, 4.05, 7.3034E-07
DataValue, 4, 7.2554E-07
DataValue, 3.95, 7.2066E-07
DataValue, 3.9, 7.2023999999999994E-07
DataValue, 3.85, 7.1696E-07
DataValue, 3.8000000000000003, 7.1379999999999995E-07
DataValue, 3.75, 7.1098E-07
DataValue, 3.7, 7.0752E-07
DataValue, 3.65, 7.0252E-07
DataValue, 3.6, 6.9786E-07
DataValue, 3.5500000000000003, 6.9414E-07
DataValue, 3.5, 6.9104E-07
DataValue, 3.45, 6.8946E-07
DataValue, 3.4, 6.8502E-07
DataValue, 3.35, 6.8157999999999994E-07
DataValue, 3.3000000000000003, 6.7578E-07
DataValue, 3.25, 6.7516E-07
DataValue, 3.2, 6.6981999999999995E-07
DataValue, 3.15, 6.6734E-07
DataValue, 3.1, 6.6344E-07
DataValue, 3.0500000000000003, 6.5624E-07
DataValue, 3, 6.556E-07
DataValue, 2.95, 6.5054E-07
DataValue, 2.9, 6.471E-07
DataValue, 2.85, 6.4128E-07
DataValue, 2.8000000000000003, 6.3724E-07
DataValue, 2.75, 6.3E-07
DataValue, 2.7, 6.2858E-07
DataValue, 2.65, 6.2272E-07
DataValue, 2.6, 6.2002E-07
DataValue, 2.5500000000000003, 6.1288E-07
DataValue, 2.5, 6.0834E-07
DataValue, 2.45, 6.0532E-07
DataValue, 2.4, 5.9982E-07
DataValue, 2.35, 5.9638E-07
DataValue, 2.3000000000000003, 5.9482E-07
DataValue, 2.25, 5.873E-07
DataValue, 2.2, 5.8138E-07
DataValue, 2.15, 5.787E-07
DataValue, 2.1, 5.7458E-07
DataValue, 2.05, 5.6736E-07
DataValue, 2, 5.6186E-07
DataValue, 1.95, 5.5958E-07
DataValue, 1.9000000000000001, 5.4958E-07
DataValue, 1.85, 5.4776E-07
DataValue, 1.8, 5.402E-07
DataValue, 1.75, 5.3497999999999994E-07
DataValue, 1.7, 5.3192E-07
DataValue, 1.6500000000000001, 5.2296E-07
DataValue, 1.6, 5.1924E-07
DataValue, 1.55, 5.1032E-07
DataValue, 1.5, 5.0652E-07
DataValue, 1.45, 5.0004E-07
DataValue, 1.4000000000000001, 4.9752E-07
DataValue, 1.35, 4.9193999999999994E-07
DataValue, 1.3, 4.8492E-07
DataValue, 1.25, 4.7794E-07
DataValue, 1.2, 4.7244E-07
DataValue, 1.1500000000000001, 4.6726E-07
DataValue, 1.1, 4.615E-07
DataValue, 1.05, 4.5448E-07
DataValue, 1, 4.4758E-07
DataValue, 0.95000000000000007, 4.4426E-07
DataValue, 0.9, 4.3766E-07
DataValue, 0.85, 4.3004E-07
DataValue, 0.8, 4.2396E-07
DataValue, 0.75, 4.1554E-07
DataValue, 0.70000000000000007, 4.0896E-07
DataValue, 0.65, 4.0306E-07
DataValue, 0.6, 3.9386E-07
DataValue, 0.55, 3.8898E-07
DataValue, 0.5, 3.8288E-07
DataValue, 0.45, 3.7578E-07
DataValue, 0.4, 3.6954E-07
DataValue, 0.35000000000000003, 3.6375999999999997E-07
DataValue, 0.3, 3.584E-07
DataValue, 0.25, 3.5007999999999997E-07
DataValue, 0.2, 3.4488E-07
DataValue, 0.15, 3.3779999999999997E-07
DataValue, 0.1, 3.3009999999999997E-07
DataValue, 0.05, 3.2308E-07
DataValue, 0, 3.1557999999999997E-07
DataValue, -0.05, 3.0756E-07
DataValue, -0.1, 2.9866E-07
DataValue, -0.15, 2.9332E-07
DataValue, -0.2, 2.8714E-07
DataValue, -0.25, 2.7848E-07
DataValue, -0.3, 2.7278E-07
DataValue, -0.35000000000000003, 2.6524E-07
DataValue, -0.4, 2.5996E-07
DataValue, -0.45, 2.5102E-07
DataValue, -0.5, 2.425E-07
DataValue, -0.55, 2.3674E-07
DataValue, -0.6, 2.3143999999999999E-07
DataValue, -0.65, 2.2188E-07
DataValue, -0.70000000000000007, 2.1203999999999999E-07
DataValue, -0.75, 2.0892E-07
DataValue, -0.8, 2.0073999999999998E-07
DataValue, -0.85, 1.9476E-07
DataValue, -0.9, 1.9028E-07
DataValue, -0.95000000000000007, 1.8234E-07
DataValue, -1, 1.7538E-07
DataValue, -1.05, 1.6724E-07
DataValue, -1.1, 1.6346E-07
DataValue, -1.1500000000000001, 1.5726E-07
DataValue, -1.2, 1.5508E-07
DataValue, -1.25, 1.4598E-07
DataValue, -1.3, 1.4412E-07
DataValue, -1.35, 1.3618E-07
DataValue, -1.4000000000000001, 1.3176E-07
DataValue, -1.45, 1.2754E-07
DataValue, -1.5, 1.1724E-07
DataValue, -1.55, 1.1526E-07
DataValue, -1.6, 1.072E-07
DataValue, -1.6500000000000001, 1.01E-07
DataValue, -1.7, 9.7938199999999984E-08
DataValue, -1.75, 9.2409399999999986E-08
DataValue, -1.8, 8.7666599999999992E-08
DataValue, -1.85, 8.2003599999999989E-08
DataValue, -1.9000000000000001, 7.8526E-08
DataValue, -1.95, 7.62838E-08
DataValue, -2, 6.89542E-08
DataValue, -2.05, 6.91508E-08
DataValue, -2.1, 6.549E-08
DataValue, -2.15, 6.01596E-08
DataValue, -2.2, 5.50622E-08
DataValue, -2.25, 5.2548799999999992E-08
DataValue, -2.3000000000000003, 5.0963399999999993E-08
DataValue, -2.35, 4.8983599999999995E-08
DataValue, -2.4, 4.5263599999999992E-08
DataValue, -2.45, 4.4346199999999996E-08
DataValue, -2.5, 4.0499199999999995E-08
DataValue, -2.5500000000000003, 3.80938E-08
DataValue, -2.6, 3.8060199999999996E-08
DataValue, -2.65, 3.72856E-08
DataValue, -2.7, 3.47678E-08
DataValue, -2.75, 3.2952599999999996E-08
DataValue, -2.8000000000000003, 3.07246E-08
DataValue, -2.85, 2.9595999999999996E-08
DataValue, -2.9, 2.6613399999999997E-08
DataValue, -2.95, 2.4643599999999997E-08
DataValue, -3, 2.2944799999999997E-08
DataValue, -3.0500000000000003, 2.1568399999999997E-08
DataValue, -3.1, 2.00594E-08
DataValue, -3.15, 1.7482199999999998E-08
DataValue, -3.2, 1.59706E-08
DataValue, -3.25, 1.5664199999999998E-08
DataValue, -3.3000000000000003, 1.5625E-08
DataValue, -3.35, 1.44308E-08
DataValue, -3.4, 1.25484E-08
DataValue, -3.45, 1.1509999999999999E-08
DataValue, -3.5, 1.19046E-08
DataValue, -3.5500000000000003, 9.792E-09
DataValue, -3.6, 9.1177999999999984E-09
DataValue, -3.65, 1.03502E-08
DataValue, -3.7, 9.68E-09
DataValue, -3.75, 9.4373999999999989E-09
DataValue, -3.8000000000000003, 9.0121999999999991E-09
DataValue, -3.85, 8.0889E-09
DataValue, -3.9, 8.8632E-09
DataValue, -3.95, 8.053E-09
DataValue, -4, 6.7861999999999996E-09
DataValue, -4.05, 6.8593E-09
DataValue, -4.1, 6.6162E-09
DataValue, -4.15, 6.5049E-09
DataValue, -4.2, 6.1937E-09
DataValue, -4.25, 5.2653E-09
DataValue, -4.3, 4.9236E-09
DataValue, -4.3500000000000005, 4.7089E-09
DataValue, -4.4, 4.3882E-09
DataValue, -4.45, 4.0369E-09
DataValue, -4.5, 3.9096E-09
DataValue, -4.55, 3.632E-09
DataValue, -4.6000000000000005, 3.7329E-09
DataValue, -4.65, 3.3884E-09
DataValue, -4.7, 3.2618E-09
DataValue, -4.75, 3.2598E-09
DataValue, -4.8, 3.1231E-09
DataValue, -4.8500000000000005, 3.1394E-09
DataValue, -4.9, 3.0162E-09
DataValue, -4.95, 3.0864E-09
DataValue, -5, 3.1198E-09
DataValue, -5, 2.5287599999999996E-08
DataValue, -4.95, 2.83938E-08
DataValue, -4.9, 3.4627599999999996E-08
DataValue, -4.8500000000000005, 3.5893599999999995E-08
