
SetupTitle, Transfer(1)
PrimitiveTest, I/V Sweep
TestParameter, Context.MainFrame, B1500A
TestParameter, Channel.UnitType, SMU, SMU
TestParameter, Channel.Unit, SMU1:HR, SMU2:HR
TestParameter, Channel.IName, Igs, Ids
TestParameter, Channel.VName, Vgs, Vds
TestParameter, Channel.Mode, V, V
TestParameter, Channel.Func, VAR1, VAR2
TestParameter, Channel.Index, 
TestParameter, Channel.Time, 
TestParameter, Measurement.Port.Unit, SMU1:HR, SMU2:HR
TestParameter, Measurement.Port.SeriesResistor, NONE, NONE
TestParameter, Measurement.Port.Filter, ON, ON
TestParameter, Measurement.Port.OutputVoltageComparison, 0, 0
TestParameter, Measurement.Primary.Locus, Double
TestParameter, Measurement.Primary.Scale, LINEAR
TestParameter, Measurement.Primary.Start, -5
TestParameter, Measurement.Primary.Stop, 5
TestParameter, Measurement.Primary.Step, 0.05
TestParameter, Measurement.Primary.Compliance, 0.05
TestParameter, Measurement.Primary.PowerCompliance, 0
TestParameter, Measurement.Aborting.Condition, STOP AT ANY ABNORMAL
TestParameter, Measurement.PostOutput.Value, START
TestParameter, Measurement.PostOutput.Retention, OFF
TestParameter, Measurement.Secondary.Start, 0.01
TestParameter, Measurement.Secondary.Count, 2
TestParameter, Measurement.Secondary.Step, 0.02
TestParameter, Measurement.Secondary.Compliance, 0.05
TestParameter, Measurement.Secondary.PowerCompliance, 0
TestParameter, Measurement.Bias.Source, -5, 0.01
TestParameter, Measurement.Bias.Compliance, 0.05, 0.05
TestParameter, Measurement.Monitor.Unit, SMU2:HR, SMU1:HR
TestParameter, Measurement.Monitor.Adc, HR ADC, HR ADC
TestParameter, Measurement.Monitor.Measurement, Compliance Side, Compliance Side
TestParameter, Measurement.Monitor.RangingMode, LIMITED, LIMITED
TestParameter, Measurement.Monitor.RangeBoundary, 100pA, 1nA
TestParameter, Measurement.Monitor.RangeRating, BY FULL RANGE, BY FULL RANGE
TestParameter, Measurement.Monitor.RangeRatingCoeff, 50, 50
TestParameter, Measurement.Timing.Hold, 0
TestParameter, Measurement.Timing.Delay, 0
TestParameter, Measurement.Adc.HighSpeed.Mode, AUTO
TestParameter, Measurement.Adc.HighSpeed.Coeff, 1
TestParameter, Measurement.Adc.HighResolution.AutoZero, OFF
TestParameter, Measurement.Adc.HighResolution.Mode, AUTO
TestParameter, Measurement.Adc.HighResolution.Coeff, 6
TestParameter, Measurement.WaitTime.Source.Coeff, 1
TestParameter, Measurement.WaitTime.Source.Offset, 0
TestParameter, Measurement.WaitTime.Monitor.Coeff, 1
TestParameter, Measurement.WaitTime.Monitor.Offset, 0
TestParameter, Output.Graph.Enabled, true
TestParameter, Output.Graph.AutoScaling, false
TestParameter, Output.Graph.XAxis.Data, Vgs
TestParameter, Output.Graph.XAxis.Scale, Linear
TestParameter, Output.Graph.XAxis.Left, -10
TestParameter, Output.Graph.XAxis.Right, 10
TestParameter, Output.Graph.XAxis.RunTimeAutoScale, true
TestParameter, Output.Graph.YAxis.Data, Ids
TestParameter, Output.Graph.YAxis.Scale, Linear
TestParameter, Output.Graph.YAxis.Bottom, -0.001
TestParameter, Output.Graph.YAxis.Top, 0.001
TestParameter, Output.Graph.YAxis.Group, 
TestParameter, Output.Graph.YAxis.RunTimeAutoScale, true
TestParameter, AutoAnalysis.Interpolation, false
TestParameter, AutoAnalysis.Line1.Enabled, false
TestParameter, AutoAnalysis.Line1.Type, 1
TestParameter, AutoAnalysis.Line1.Fix, True
TestParameter, AutoAnalysis.Line1.YAxis, 0
TestParameter, AutoAnalysis.Line1.Point1.Type, 0
TestParameter, AutoAnalysis.Line1.Point1.XY.X, 
TestParameter, AutoAnalysis.Line1.Point1.XY.Y, 
TestParameter, AutoAnalysis.Line1.Point1.Data.Var, 
TestParameter, AutoAnalysis.Line1.Point1.Data.Condition, 
TestParameter, AutoAnalysis.Line1.Point1.Data.Start, false
TestParameter, AutoAnalysis.Line1.Point1.Data.StartVar, 
TestParameter, AutoAnalysis.Line1.Point1.Data.StartCondition, 
TestParameter, AutoAnalysis.Line1.Point2.Type, 0
TestParameter, AutoAnalysis.Line1.Point2.XY.X, 
TestParameter, AutoAnalysis.Line1.Point2.XY.Y, 
TestParameter, AutoAnalysis.Line1.Point2.Data.Var, 
TestParameter, AutoAnalysis.Line1.Point2.Data.Condition, 
TestParameter, AutoAnalysis.Line1.Point2.Data.Start, false
TestParameter, AutoAnalysis.Line1.Point2.Data.StartVar, 
TestParameter, AutoAnalysis.Line1.Point2.Data.StartCondition, 
TestParameter, AutoAnalysis.Line1.GradientExpr, 0
TestParameter, AutoAnalysis.Line2.Enabled, false
TestParameter, AutoAnalysis.Line2.Type, 1
TestParameter, AutoAnalysis.Line2.Fix, True
TestParameter, AutoAnalysis.Line2.YAxis, 0
TestParameter, AutoAnalysis.Line2.Point1.Type, 0
TestParameter, AutoAnalysis.Line2.Point1.XY.X, 
TestParameter, AutoAnalysis.Line2.Point1.XY.Y, 
TestParameter, AutoAnalysis.Line2.Point1.Data.Var, 
TestParameter, AutoAnalysis.Line2.Point1.Data.Condition, 
TestParameter, AutoAnalysis.Line2.Point1.Data.Start, false
TestParameter, AutoAnalysis.Line2.Point1.Data.StartVar, 
TestParameter, AutoAnalysis.Line2.Point1.Data.StartCondition, 
TestParameter, AutoAnalysis.Line2.Point2.Type, 0
TestParameter, AutoAnalysis.Line2.Point2.XY.X, 
TestParameter, AutoAnalysis.Line2.Point2.XY.Y, 
TestParameter, AutoAnalysis.Line2.Point2.Data.Var, 
TestParameter, AutoAnalysis.Line2.Point2.Data.Condition, 
TestParameter, AutoAnalysis.Line2.Point2.Data.Start, false
TestParameter, AutoAnalysis.Line2.Point2.Data.StartVar, 
TestParameter, AutoAnalysis.Line2.Point2.Data.StartCondition, 
TestParameter, AutoAnalysis.Line2.GradientExpr, 0
TestParameter, AutoAnalysis.Marker.Enabled, false
TestParameter, AutoAnalysis.Marker.Data.Var, 
TestParameter, AutoAnalysis.Marker.Data.Condition, 
TestParameter, AutoAnalysis.Marker.Data.Start, false
TestParameter, AutoAnalysis.Marker.Data.StartVar, 
TestParameter, AutoAnalysis.Marker.Data.StartCondition, 
MetaData, TestRecord.EntryPoint, true
MetaData, TestRecord.RecordTime, 07/21/2020 18:29:25
MetaData, TestRecord.TestTarget, 0312a25
MetaData, TestRecord.IterationIndex, 8
MetaData, TestRecord.Preservation, true
MetaData, TestRecord.Flag, 
MetaData, TestRecord.Remarks, 
MetaData, TestRecord.LinkKey, 5738252c-ca7a-46e0-9a12-2404c17be55d
Dimension1, 402, 402
Dimension2, 2, 2
DataName, Vgs, Ids
DataValue, -5, 3.654E-11
DataValue, -4.95, 4.05366E-11
DataValue, -4.9, 4.45796E-11
DataValue, -4.8500000000000005, 5.48156E-11
DataValue, -4.8, 5.4403999999999996E-11
DataValue, -4.75, 6.17968E-11
DataValue, -4.7, 6.5768E-11
DataValue, -4.65, 7.83138E-11
DataValue, -4.6000000000000005, 7.8895E-11
DataValue, -4.55, 9.11134E-11
DataValue, -4.5, 9.26936E-11
DataValue, -4.45, 1.025796E-10
DataValue, -4.4, 1.115942E-10
DataValue, -4.3500000000000005, 1.2144000000000002E-10
DataValue, -4.3, 1.2352E-10
DataValue, -4.25, 1.2764E-10
DataValue, -4.2, 1.4826000000000001E-10
DataValue, -4.15, 1.6428E-10
DataValue, -4.1, 1.979E-10
DataValue, -4.05, 2.0363000000000003E-10
DataValue, -4, 2.4773000000000003E-10
DataValue, -3.95, 2.5471000000000004E-10
DataValue, -3.9, 3.0192000000000003E-10
DataValue, -3.85, 3.2664E-10
DataValue, -3.8000000000000003, 3.8798000000000004E-10
DataValue, -3.75, 3.924E-10
DataValue, -3.7, 4.5504E-10
DataValue, -3.65, 4.6804000000000007E-10
DataValue, -3.6, 5.3859E-10
DataValue, -3.5500000000000003, 5.3278E-10
DataValue, -3.5, 6.2389E-10
DataValue, -3.45, 6.6357E-10
DataValue, -3.4, 7.4E-10
DataValue, -3.35, 8.0883000000000009E-10
DataValue, -3.3000000000000003, 8.6343000000000009E-10
DataValue, -3.25, 9.5546000000000013E-10
DataValue, -3.2, 1.02338E-09
DataValue, -3.15, 1.07765E-09
DataValue, -3.1, 1.0212E-09
DataValue, -3.0500000000000003, 1.1447E-09
DataValue, -3, 1.3776E-09
DataValue, -2.95, 1.4241E-09
DataValue, -2.9, 1.5932E-09
DataValue, -2.85, 1.6647E-09
DataValue, -2.8000000000000003, 1.7839E-09
DataValue, -2.75, 1.8046E-09
DataValue, -2.7, 2.1291E-09
DataValue, -2.65, 2.2546E-09
DataValue, -2.6, 2.517E-09
DataValue, -2.5500000000000003, 2.7721E-09
DataValue, -2.5, 2.9545E-09
DataValue, -2.45, 3.1038E-09
DataValue, -2.4, 3.2884E-09
DataValue, -2.35, 3.556E-09
DataValue, -2.3000000000000003, 3.7459E-09
DataValue, -2.25, 3.9973E-09
DataValue, -2.2, 4.2794E-09
DataValue, -2.15, 4.3384E-09
DataValue, -2.1, 4.538E-09
DataValue, -2.05, 4.6997E-09
DataValue, -2, 5.0037E-09
DataValue, -1.95, 5.2811E-09
DataValue, -1.9000000000000001, 5.6038E-09
DataValue, -1.85, 6.0429E-09
DataValue, -1.8, 6.5845E-09
DataValue, -1.75, 6.7749E-09
DataValue, -1.7, 7.2455E-09
DataValue, -1.6500000000000001, 7.68E-09
DataValue, -1.6, 8.1961E-09
DataValue, -1.55, 8.4867E-09
DataValue, -1.5, 9.1856E-09
DataValue, -1.45, 9.6609E-09
DataValue, -1.4000000000000001, 1.00646E-08
DataValue, -1.35, 1.06315E-08
DataValue, -1.3, 1.1058E-08
DataValue, -1.25, 1.13502E-08
DataValue, -1.2, 1.15072E-08
DataValue, -1.1500000000000001, 1.1759999999999999E-08
DataValue, -1.1, 1.2501199999999998E-08
DataValue, -1.05, 1.3283599999999998E-08
DataValue, -1, 1.39694E-08
DataValue, -0.95000000000000007, 1.45574E-08
DataValue, -0.9, 1.50226E-08
DataValue, -0.85, 1.60458E-08
DataValue, -0.8, 1.68688E-08
DataValue, -0.75, 1.7466999999999997E-08
DataValue, -0.70000000000000007, 1.8468799999999997E-08
DataValue, -0.65, 1.9509199999999997E-08
DataValue, -0.6, 2.03214E-08
DataValue, -0.55, 2.1026E-08
DataValue, -0.5, 2.1526999999999998E-08
DataValue, -0.45, 2.2356999999999996E-08
DataValue, -0.4, 2.3522199999999998E-08
DataValue, -0.35000000000000003, 2.4312799999999997E-08
DataValue, -0.3, 2.5396599999999997E-08
DataValue, -0.25, 2.6046199999999998E-08
DataValue, -0.2, 2.7295599999999997E-08
DataValue, -0.15, 2.8116999999999996E-08
DataValue, -0.1, 2.8939E-08
DataValue, -0.05, 2.9380999999999997E-08
DataValue, 0, 3.021E-08
DataValue, 0.05, 3.1262799999999996E-08
DataValue, 0.1, 3.2136E-08
DataValue, 0.15, 3.3163E-08
DataValue, 0.2, 3.40208E-08
DataValue, 0.25, 3.5104999999999996E-08
DataValue, 0.3, 3.62428E-08
DataValue, 0.35000000000000003, 3.73568E-08
DataValue, 0.4, 3.8304E-08
DataValue, 0.45, 3.93254E-08
DataValue, 0.5, 3.9865999999999994E-08
DataValue, 0.55, 4.0898399999999995E-08
DataValue, 0.6, 4.1815599999999994E-08
DataValue, 0.65, 4.25404E-08
DataValue, 0.70000000000000007, 4.3711599999999993E-08
DataValue, 0.75, 4.4853E-08
DataValue, 0.8, 4.5742999999999995E-08
DataValue, 0.85, 4.71602E-08
DataValue, 0.9, 4.82604E-08
DataValue, 0.95000000000000007, 4.93526E-08
DataValue, 1, 5.02034E-08
DataValue, 1.05, 5.08734E-08
DataValue, 1.1, 5.1635799999999996E-08
DataValue, 1.1500000000000001, 5.2276799999999995E-08
DataValue, 1.2, 5.3100199999999997E-08
DataValue, 1.25, 5.37104E-08
DataValue, 1.3, 5.5172799999999996E-08
DataValue, 1.35, 5.6016999999999991E-08
DataValue, 1.4000000000000001, 5.65546E-08
DataValue, 1.45, 5.7584199999999992E-08
DataValue, 1.5, 5.8390599999999995E-08
DataValue, 1.55, 5.8996999999999996E-08
DataValue, 1.6, 6.0140199999999992E-08
DataValue, 1.6500000000000001, 6.1018399999999993E-08
DataValue, 1.7, 6.18656E-08
DataValue, 1.75, 6.256179999999999E-08
DataValue, 1.8, 6.34604E-08
DataValue, 1.85, 6.4056799999999992E-08
DataValue, 1.9000000000000001, 6.469239999999999E-08
DataValue, 1.95, 6.51568E-08
DataValue, 2, 6.60916E-08
DataValue, 2.05, 6.71438E-08
DataValue, 2.1, 6.7926599999999988E-08
DataValue, 2.15, 6.87548E-08
DataValue, 2.2, 6.9085E-08
DataValue, 2.25, 7.00104E-08
DataValue, 2.3000000000000003, 7.0919999999999989E-08
DataValue, 2.35, 7.1647199999999991E-08
DataValue, 2.4, 7.24136E-08
DataValue, 2.45, 7.299579999999999E-08
DataValue, 2.5, 7.36152E-08
DataValue, 2.5500000000000003, 7.42576E-08
DataValue, 2.6, 7.4571599999999993E-08
DataValue, 2.65, 7.5254E-08
DataValue, 2.7, 7.58226E-08
DataValue, 2.75, 7.646E-08
DataValue, 2.8000000000000003, 7.69138E-08
DataValue, 2.85, 7.778179999999999E-08
DataValue, 2.9, 7.83076E-08
DataValue, 2.95, 7.8837599999999986E-08
DataValue, 3, 7.927E-08
DataValue, 3.0500000000000003, 8.00802E-08
DataValue, 3.1, 8.05548E-08
DataValue, 3.15, 8.10962E-08
DataValue, 3.2, 8.15284E-08
DataValue, 3.25, 8.2278399999999986E-08
DataValue, 3.3000000000000003, 8.2789999999999989E-08
DataValue, 3.35, 8.3321199999999993E-08
DataValue, 3.4, 8.3930999999999986E-08
DataValue, 3.45, 8.4697199999999992E-08
DataValue, 3.5, 8.5025E-08
DataValue, 3.5500000000000003, 8.5471599999999991E-08
DataValue, 3.6, 8.5967399999999987E-08
DataValue, 3.65, 8.49232E-08
DataValue, 3.7, 8.5678199999999992E-08
DataValue, 3.75, 8.6457199999999989E-08
DataValue, 3.8000000000000003, 8.60912E-08
DataValue, 3.85, 8.68688E-08
DataValue, 3.9, 8.7423199999999986E-08
DataValue, 3.95, 8.78402E-08
DataValue, 4, 8.7924999999999988E-08
DataValue, 4.05, 8.87928E-08
DataValue, 4.1, 8.8984399999999993E-08
DataValue, 4.15, 9.0507199999999989E-08
DataValue, 4.2, 9.10262E-08
DataValue, 4.25, 9.13946E-08
DataValue, 4.3, 9.19844E-08
DataValue, 4.3500000000000005, 9.2301799999999991E-08
DataValue, 4.4, 9.19144E-08
DataValue, 4.45, 9.210499999999999E-08
DataValue, 4.5, 9.2506599999999987E-08
DataValue, 4.55, 9.3041399999999988E-08
DataValue, 4.6000000000000005, 9.3414399999999987E-08
DataValue, 4.65, 9.3908399999999991E-08
DataValue, 4.7, 9.4073799999999988E-08
DataValue, 4.75, 9.4666399999999991E-08
DataValue, 4.8, 9.4986799999999991E-08
DataValue, 4.8500000000000005, 9.5469599999999986E-08
DataValue, 4.9, 9.6021599999999989E-08
DataValue, 4.95, 9.6254399999999991E-08
DataValue, 5, 9.47118E-08
DataValue, 5, 9.4452199999999989E-08
DataValue, 4.95, 9.4253399999999986E-08
DataValue, 4.9, 9.36162E-08
DataValue, 4.8500000000000005, 9.3046799999999989E-08
DataValue, 4.8, 9.25158E-08
DataValue, 4.75, 9.1743199999999987E-08
DataValue, 4.7, 9.1565999999999988E-08
DataValue, 4.65, 9.1472599999999993E-08
DataValue, 4.6000000000000005, 9.1107599999999989E-08
DataValue, 4.55, 9.0976399999999989E-08
DataValue, 4.5, 9.0769399999999992E-08
DataValue, 4.45, 9.0232799999999987E-08
DataValue, 4.4, 8.9334599999999991E-08
DataValue, 4.3500000000000005, 8.89906E-08
DataValue, 4.3, 8.8493999999999985E-08
DataValue, 4.25, 9.0216599999999985E-08
DataValue, 4.2, 8.77964E-08
DataValue, 4.15, 8.7323199999999991E-08
DataValue, 4.1, 8.64336E-08
DataValue, 4.05, 8.593539999999999E-08
DataValue, 4, 8.5418999999999992E-08
DataValue, 3.95, 8.7429E-08
DataValue, 3.9, 8.68308E-08
DataValue, 3.85, 8.62936E-08
DataValue, 3.8000000000000003, 8.58396E-08
DataValue, 3.75, 8.50392E-08
DataValue, 3.7, 8.4774199999999986E-08
DataValue, 3.65, 8.42792E-08
DataValue, 3.6, 8.34502E-08
DataValue, 3.5500000000000003, 8.31076E-08
DataValue, 3.5, 8.23366E-08
DataValue, 3.45, 8.1467399999999993E-08
DataValue, 3.4, 8.2085399999999992E-08
DataValue, 3.35, 8.1271799999999991E-08
DataValue, 3.3000000000000003, 8.12584E-08
DataValue, 3.25, 8.0331599999999986E-08
DataValue, 3.2, 7.9535199999999988E-08
DataValue, 3.15, 7.91452E-08
DataValue, 3.1, 7.846979999999999E-08
DataValue, 3.0500000000000003, 7.7637599999999988E-08
DataValue, 3, 7.70606E-08
DataValue, 2.95, 7.6531799999999989E-08
DataValue, 2.9, 7.549E-08
DataValue, 2.85, 7.4778799999999987E-08
DataValue, 2.8000000000000003, 7.43108E-08
DataValue, 2.75, 7.34296E-08
DataValue, 2.7, 7.3227E-08
DataValue, 2.65, 7.21366E-08
DataValue, 2.6, 7.14718E-08
DataValue, 2.5500000000000003, 7.05376E-08
DataValue, 2.5, 7.0121399999999992E-08
DataValue, 2.45, 6.9089199999999988E-08
DataValue, 2.4, 6.811459999999999E-08
DataValue, 2.35, 6.7481399999999989E-08
DataValue, 2.3000000000000003, 6.67118E-08
DataValue, 2.25, 6.60096E-08
DataValue, 2.2, 6.50448E-08
DataValue, 2.15, 6.3707799999999993E-08
DataValue, 2.1, 6.2927199999999989E-08
DataValue, 2.05, 6.20612E-08
DataValue, 2, 6.1213E-08
DataValue, 1.95, 6.013E-08
DataValue, 1.9000000000000001, 5.9558799999999993E-08
DataValue, 1.85, 5.8284199999999992E-08
DataValue, 1.8, 5.7665599999999993E-08
DataValue, 1.75, 5.6255599999999996E-08
DataValue, 1.7, 5.5634599999999993E-08
DataValue, 1.6500000000000001, 5.4397999999999995E-08
DataValue, 1.6, 5.3796199999999992E-08
DataValue, 1.55, 5.2684E-08
DataValue, 1.5, 5.1793399999999994E-08
DataValue, 1.45, 5.06754E-08
DataValue, 1.4000000000000001, 4.9691799999999995E-08
DataValue, 1.35, 4.8696199999999992E-08
DataValue, 1.3, 4.79832E-08
DataValue, 1.25, 4.7261799999999992E-08
DataValue, 1.2, 4.60868E-08
DataValue, 1.1500000000000001, 4.46338E-08
DataValue, 1.1, 4.42378E-08
DataValue, 1.05, 4.3155799999999995E-08
DataValue, 1, 4.18344E-08
DataValue, 0.95000000000000007, 4.0820799999999995E-08
DataValue, 0.9, 3.9877999999999995E-08
DataValue, 0.85, 3.84712E-08
DataValue, 0.8, 3.7562199999999993E-08
DataValue, 0.75, 3.67334E-08
DataValue, 0.70000000000000007, 3.51054E-08
DataValue, 0.65, 3.4633599999999996E-08
DataValue, 0.6, 3.3298199999999996E-08
DataValue, 0.55, 3.15328E-08
DataValue, 0.5, 3.0859E-08
DataValue, 0.45, 2.95832E-08
DataValue, 0.4, 2.8417199999999997E-08
DataValue, 0.35000000000000003, 2.7379599999999996E-08
DataValue, 0.3, 2.5956799999999998E-08
DataValue, 0.25, 2.59414E-08
DataValue, 0.2, 2.4824599999999997E-08
DataValue, 0.15, 2.3744599999999997E-08
DataValue, 0.1, 2.2810199999999998E-08
DataValue, 0.05, 2.1572799999999996E-08
DataValue, 0, 2.05874E-08
DataValue, -0.05, 2.02342E-08
DataValue, -0.1, 1.9600999999999998E-08
DataValue, -0.15, 1.8615599999999998E-08
DataValue, -0.2, 1.75742E-08
DataValue, -0.25, 1.68276E-08
DataValue, -0.3, 1.5949399999999998E-08
DataValue, -0.35000000000000003, 1.54468E-08
DataValue, -0.4, 1.53172E-08
DataValue, -0.45, 1.4462599999999998E-08
DataValue, -0.5, 1.3962599999999999E-08
DataValue, -0.55, 1.32328E-08
DataValue, -0.6, 1.2449999999999999E-08
DataValue, -0.65, 1.1729799999999999E-08
DataValue, -0.70000000000000007, 1.0986799999999999E-08
DataValue, -0.75, 1.0177199999999998E-08
DataValue, -0.8, 8.4755E-09
DataValue, -0.85, 8.8401E-09
DataValue, -0.9, 8.1042E-09
DataValue, -0.95000000000000007, 7.8626E-09
DataValue, -1, 7.0498E-09
DataValue, -1.05, 6.8672E-09
DataValue, -1.1, 6.2005E-09
DataValue, -1.1500000000000001, 5.8787E-09
DataValue, -1.2, 5.6894E-09
DataValue, -1.25, 5.253E-09
DataValue, -1.3, 4.7652E-09
DataValue, -1.35, 4.6011E-09
DataValue, -1.4000000000000001, 4.3157E-09
DataValue, -1.45, 4.0222E-09
DataValue, -1.5, 3.7549E-09
DataValue, -1.55, 3.3769E-09
DataValue, -1.6, 3.2718E-09
DataValue, -1.6500000000000001, 2.9961E-09
DataValue, -1.7, 2.691E-09
DataValue, -1.75, 2.4885E-09
DataValue, -1.8, 2.2101E-09
DataValue, -1.85, 2.0107E-09
DataValue, -1.9000000000000001, 1.8866E-09
DataValue, -1.95, 1.7268E-09
DataValue, -2, 1.5391E-09
DataValue, -2.05, 1.4569E-09
DataValue, -2.1, 1.3497E-09
DataValue, -2.15, 1.1773E-09
DataValue, -2.2, 1.0879E-09
DataValue, -2.25, 9.49E-10
DataValue, -2.3000000000000003, 8.4938E-10
DataValue, -2.35, 8.3678000000000008E-10
DataValue, -2.4, 7.3492000000000008E-10
DataValue, -2.45, 6.6423000000000009E-10
DataValue, -2.5, 6.0127E-10
DataValue, -2.5500000000000003, 5.9182E-10
DataValue, -2.6, 5.4585E-10
DataValue, -2.65, 4.4631000000000003E-10
DataValue, -2.7, 4.0017E-10
DataValue, -2.75, 3.4975E-10
DataValue, -2.8000000000000003, 3.6911000000000003E-10
DataValue, -2.85, 3.4136000000000005E-10
DataValue, -2.9, 3.1082E-10
DataValue, -2.95, 2.7332000000000004E-10
DataValue, -3, 2.5334000000000003E-10
DataValue, -3.0500000000000003, 2.6062000000000003E-10
DataValue, -3.1, 2.5318E-10
DataValue, -3.15, 2.1042E-10
DataValue, -3.2, 1.8677000000000002E-10
DataValue, -3.25, 1.9692E-10
DataValue, -3.3000000000000003, 1.7785E-10
DataValue, -3.35, 1.6750000000000002E-10
DataValue, -3.4, 1.5035E-10
DataValue, -3.45, 1.49E-10
DataValue, -3.5, 1.3535E-10
DataValue, -3.5500000000000003, 1.3833E-10
DataValue, -3.6, 1.3036E-10
DataValue, -3.65, 1.1110000000000001E-10
DataValue, -3.7, 1.2285000000000002E-10
DataValue, -3.75, 1.0724000000000001E-10
